EMTDC_Simulation,1,1999
6,6A,0D
1,IaA:A1,A,A1,kA,0.258317E-03,-3.38340,0.0,0,32767,1.000000,1,S
2,IbA:A2,A,A2,kA,0.218335E-03,-3.77126,0.0,0,32767,1.000000,1,S
3,IcA:A3,A,A3,kA,0.239882E-03,-4.47590,0.0,0,32767,1.000000,1,S
4,IaB:A4,A,A4,kA,0.430828E-03,-5.68263,0.0,0,32767,1.000000,1,S
5,IbB:A5,A,A5,kA,0.366891E-03,-6.34062,0.0,0,32767,1.000000,1,S
6,IcB:A6,A,A6,kA,0.402463E-03,-7.50862,0.0,0,32767,1.000000,1,S
50
1
4000,10001
03/06/2022,14:56:46.000000
03/06/2022,14:56:46.000000
ASCII
1
         1,         0, 13098, 17273, 18659, 13190, 17282, 18657
         2,       250, 13540, 15644, 19665, 13190, 17282, 18657
         3,       500, 13702, 15403, 19710, 12928, 17823, 18444
         4,       750, 13834, 16706, 18381, 12836, 17999, 18383
         5,      1000, 14053, 16357, 18464, 12867, 17539, 18768
         6,      1250, 13910, 17293, 17765, 12831, 17260, 19061
         7,      1500, 13851, 17945, 17235, 12751, 17413, 19007
         8,      1750, 13948, 17558, 17484, 12797, 16821, 19498
         9,      2000, 13841, 18830, 16441, 12745, 17179, 19227
        10,      2250, 13854, 18552, 16680, 12647, 17409, 19122
        11,      2500, 14103, 17063, 17767, 12648, 17132, 19374
        12,      2750, 14279, 16525, 18067, 12575, 17376, 19230
        13,      3000, 14373, 16445, 18039, 12504, 17420, 19265
        14,      3250, 14458, 16963, 17476, 12511, 17265, 19399
        15,      3500, 14386, 17717, 16866, 12492, 17188, 19490
        16,      3750, 14288, 18109, 16616, 12494, 16997, 19661
        17,      4000, 14240, 18197, 16588, 12535, 16748, 19845
        18,      4250, 14155, 18658, 16259, 12551, 16695, 19876
        19,      4500, 14051, 19094, 15974, 12542, 16789, 19800
        20,      4750, 14056, 18770, 16264, 12560, 16737, 19828
        21,      5000, 14090, 18209, 16738, 12567, 16729, 19828
        22,      5250, 14110, 17952, 16951, 12564, 16758, 19804
        23,      5500, 14118, 17958, 16937, 12601, 16620, 19891
        24,      5750, 14023, 18602, 16453, 12634, 16583, 19890
        25,      6000, 13879, 19076, 16176, 12673, 16461, 19959
        26,      6250, 13761, 19228, 16165, 12744, 16239, 20085
        27,      6500, 13619, 19454, 16112, 12804, 16148, 20103
        28,      6750, 13481, 19710, 16028, 12859, 16105, 20084
        29,      7000, 13372, 19823, 16042, 12917, 16083, 20042
        30,      7250, 13280, 19706, 16248, 12965, 16093, 19982
        31,      7500, 13221, 19369, 16618, 13017, 16063, 19953
        32,      7750, 13165, 19204, 16829, 13077, 16014, 19934
        33,      8000, 13066, 19393, 16763, 13139, 15967, 19910
        34,      8250, 12923, 19764, 16580, 13207, 15913, 19886
        35,      8500, 12771, 19998, 16531, 13284, 15816, 19892
        36,      8750, 12621, 20091, 16607, 13363, 15725, 19891
        37,      9000, 12479, 20164, 16695, 13439, 15682, 19849
        38,      9250, 12349, 20227, 16776, 13511, 15673, 19780
        39,      9500, 12235, 20235, 16892, 13575, 15703, 19684
        40,      9750, 12142, 20067, 17146, 13634, 15727, 19599
        41,     10000, 12072, 19807, 17457, 13696, 15727, 19532
        42,     10250, 11998, 19696, 17638, 13756, 15735, 19461
        43,     10500, 11904, 19782, 17660, 13815, 15740, 19393
        44,     10750, 11796, 19923, 17648, 13876, 15735, 19333
        45,     11000, 11687, 19980, 17714, 13935, 15728, 19276
        46,     11250, 11592, 19925, 17867, 13991, 15726, 19217
        47,     11500, 11512, 19850, 18020, 14042, 15753, 19138
        48,     11750, 11445, 19782, 18154, 14085, 15814, 19037
        49,     12000, 11396, 19658, 18321, 14119, 15890, 18931
        50,     12250, 11367, 19433, 18556, 14148, 15957, 18839
        51,     12500, 11353, 19191, 18791, 14174, 16018, 18756
        52,     12750, 11341, 19045, 18938, 14196, 16080, 18677
        53,     13000, 11323, 19008, 18991, 14213, 16141, 18602
        54,     13250, 11302, 18990, 19029, 14227, 16200, 18532
        55,     13500, 11290, 18903, 19122, 14237, 16258, 18469
        56,     13750, 11294, 18748, 19258, 14241, 16323, 18406
        57,     14000, 11313, 18590, 19382, 14238, 16408, 18332
        58,     14250, 11345, 18437, 19487, 14226, 16509, 18252
        59,     14500, 11391, 18248, 19609, 14208, 16614, 18176
        60,     14750, 11453, 18015, 19754, 14184, 16712, 18113
        61,     15000, 11526, 17789, 19882, 14155, 16803, 18061
        62,     15250, 11600, 17633, 19944, 14122, 16891, 18015
        63,     15500, 11673, 17541, 19949, 14086, 16979, 17974
        64,     15750, 11747, 17454, 19948, 14045, 17062, 17942
        65,     16000, 11830, 17322, 19979, 14000, 17143, 17917
        66,     16250, 11924, 17160, 20026, 13950, 17226, 17894
        67,     16500, 12028, 17003, 20057, 13895, 17318, 17869
        68,     16750, 12139, 16856, 20070, 13836, 17414, 17845
        69,     17000, 12258, 16698, 20086, 13772, 17507, 17829
        70,     17250, 12384, 16526, 20107, 13705, 17590, 17825
        71,     17500, 12513, 16374, 20106, 13636, 17664, 17831
        72,     17750, 12640, 16276, 20059, 13566, 17732, 17844
        73,     18000, 12763, 16219, 19979, 13495, 17795, 17862
        74,     18250, 12885, 16164, 19898, 13423, 17852, 17887
        75,     18500, 13008, 16087, 19834, 13350, 17903, 17919
        76,     18750, 13135, 16002, 19775, 13276, 17952, 17953
        77,     19000, 13262, 15930, 19703, 13202, 18001, 17988
        78,     19250, 13389, 15873, 19619, 13127, 18047, 18026
        79,     19500, 13515, 15817, 19534, 13053, 18085, 18071
        80,     19750, 13638, 15765, 19450, 12980, 18112, 18124
        81,     20000, 13756, 15736, 19349, 12910, 18130, 18183
        82,     20250, 13866, 15746, 19221, 12843, 18140, 18246
        83,     20500, 13968, 15783, 19077, 12778, 18143, 18313
        84,     20750, 14062, 15823, 18940, 12716, 18139, 18382
        85,     21000, 14152, 15854, 18816, 12658, 18129, 18454
        86,     21250, 14236, 15886, 18696, 12603, 18114, 18526
        87,     21500, 14313, 15932, 18571, 12552, 18096, 18597
        88,     21750, 14383, 15990, 18442, 12505, 18073, 18669
        89,     22000, 14445, 16054, 18317, 12462, 18042, 18743
        90,     22250, 14499, 16125, 18195, 12425, 18002, 18819
        91,     22500, 14542, 16214, 18068, 12393, 17955, 18896
        92,     22750, 14573, 16327, 17930, 12366, 17903, 18973
        93,     23000, 14593, 16455, 17793, 12345, 17845, 19047
        94,     23250, 14603, 16581, 17667, 12330, 17783, 19120
        95,     23500, 14605, 16701, 17556, 12320, 17717, 19191
        96,     23750, 14598, 16822, 17454, 12316, 17649, 19258
        97,     24000, 14581, 16951, 17354, 12318, 17579, 19320
        98,     24250, 14556, 17084, 17260, 12324, 17506, 19379
        99,     24500, 14520, 17219, 17176, 12337, 17429, 19436
       100,     24750, 14476, 17355, 17100, 12355, 17349, 19489
       101,     25000, 14422, 17499, 17028, 12379, 17266, 19539
       102,     25250, 14357, 17651, 16958, 12409, 17183, 19583
       103,     25500, 14284, 17805, 16897, 12444, 17099, 19622
       104,     25750, 14203, 17951, 16851, 12483, 17016, 19656
       105,     26000, 14116, 18087, 16821, 12527, 16934, 19684
       106,     26250, 14022, 18218, 16803, 12576, 16853, 19705
       107,     26500, 13923, 18347, 16793, 12628, 16776, 19720
       108,     26750, 13818, 18472, 16792, 12684, 16700, 19729
       109,     27000, 13708, 18590, 16803, 12744, 16626, 19732
       110,     27250, 13594, 18701, 16824, 12806, 16555, 19731
       111,     27500, 13476, 18810, 16852, 12872, 16486, 19723
       112,     27750, 13355, 18915, 16887, 12939, 16422, 19709
       113,     28000, 13231, 19012, 16933, 13009, 16362, 19689
       114,     28250, 13106, 19094, 16993, 13080, 16307, 19663
       115,     28500, 12981, 19162, 17065, 13151, 16258, 19631
       116,     28750, 12857, 19220, 17146, 13224, 16215, 19593
       117,     29000, 12734, 19269, 17234, 13296, 16178, 19550
       118,     29250, 12613, 19307, 17329, 13367, 16147, 19502
       119,     29500, 12494, 19334, 17433, 13438, 16121, 19449
       120,     29750, 12379, 19349, 17543, 13508, 16102, 19393
       121,     30000, 12268, 19356, 17656, 13576, 16088, 19332
       122,     30250, 12160, 19354, 17774, 13641, 16082, 19268
       123,     30500, 12059, 19339, 17897, 13705, 16082, 19199
       124,     30750, 11963, 19309, 18027, 13765, 16089, 19128
       125,     31000, 11874, 19266, 18162, 13822, 16103, 19055
       126,     31250, 11793, 19212, 18299, 13875, 16124, 18979
       127,     31500, 11720, 19148, 18436, 13924, 16152, 18901
       128,     31750, 11655, 19074, 18573, 13969, 16185, 18823
       129,     32000, 11598, 18990, 18711, 14009, 16225, 18744
       130,     32250, 11550, 18897, 18847, 14044, 16270, 18665
       131,     32500, 11511, 18796, 18981, 14075, 16320, 18586
       132,     32750, 11482, 18688, 19111, 14100, 16376, 18508
       133,     33000, 11462, 18572, 19239, 14119, 16437, 18432
       134,     33250, 11452, 18446, 19364, 14133, 16503, 18357
       135,     33500, 11452, 18313, 19484, 14142, 16574, 18284
       136,     33750, 11462, 18175, 19599, 14144, 16648, 18213
       137,     34000, 11482, 18033, 19707, 14141, 16725, 18146
       138,     34250, 11511, 17888, 19807, 14132, 16806, 18082
       139,     34500, 11550, 17739, 19900, 14118, 16888, 18022
       140,     34750, 11599, 17589, 19985, 14098, 16972, 17967
       141,     35000, 11656, 17439, 20060, 14073, 17058, 17916
       142,     35250, 11721, 17289, 20126, 14042, 17145, 17870
       143,     35500, 11795, 17139, 20183, 14006, 17232, 17829
       144,     35750, 11877, 16990, 20231, 13966, 17319, 17793
       145,     36000, 11967, 16842, 20269, 13920, 17405, 17763
       146,     36250, 12063, 16698, 20297, 13870, 17490, 17739
       147,     36500, 12165, 16559, 20313, 13817, 17573, 17720
       148,     36750, 12273, 16426, 20318, 13759, 17654, 17708
       149,     37000, 12385, 16298, 20313, 13698, 17733, 17702
       150,     37250, 12502, 16177, 20298, 13634, 17808, 17702
       151,     37500, 12622, 16065, 20271, 13568, 17879, 17708
       152,     37750, 12745, 15960, 20234, 13499, 17946, 17721
       153,     38000, 12869, 15864, 20187, 13429, 18009, 17739
       154,     38250, 12995, 15776, 20131, 13357, 18067, 17763
       155,     38500, 13122, 15698, 20066, 13284, 18120, 17793
       156,     38750, 13248, 15631, 19991, 13211, 18167, 17828
       157,     39000, 13374, 15575, 19907, 13137, 18208, 17869
       158,     39250, 13497, 15530, 19815, 13064, 18244, 17915
       159,     39500, 13617, 15496, 19716, 12992, 18272, 17965
       160,     39750, 13735, 15474, 19610, 12922, 18295, 18021
       161,     40000, 13848, 15464, 19497, 12853, 18311, 18080
       162,     40250, 13956, 15466, 19379, 12786, 18320, 18143
       163,     40500, 14059, 15479, 19257, 12722, 18322, 18209
       164,     40750, 14155, 15503, 19130, 12661, 18318, 18279
       165,     41000, 14246, 15539, 19001, 12603, 18307, 18350
       166,     41250, 14329, 15586, 18869, 12549, 18289, 18424
       167,     41500, 14404, 15644, 18735, 12499, 18265, 18500
       168,     41750, 14471, 15713, 18600, 12453, 18235, 18577
       169,     42000, 14529, 15792, 18465, 12412, 18198, 18654
       170,     42250, 14579, 15881, 18331, 12376, 18155, 18732
       171,     42500, 14619, 15978, 18199, 12345, 18107, 18809
       172,     42750, 14649, 16085, 18070, 12319, 18053, 18886
       173,     43000, 14670, 16198, 17944, 12299, 17995, 18961
       174,     43250, 14681, 16319, 17822, 12284, 17931, 19035
       175,     43500, 14682, 16446, 17705, 12275, 17864, 19106
       176,     43750, 14674, 16579, 17593, 12272, 17792, 19175
       177,     44000, 14655, 16716, 17488, 12274, 17717, 19241
       178,     44250, 14627, 16858, 17390, 12282, 17639, 19303
       179,     44500, 14589, 17002, 17299, 12296, 17559, 19362
       180,     44750, 14542, 17149, 17216, 12315, 17477, 19416
       181,     45000, 14486, 17296, 17142, 12340, 17393, 19466
       182,     45250, 14421, 17444, 17077, 12370, 17308, 19511
       183,     45500, 14348, 17591, 17022, 12405, 17223, 19551
       184,     45750, 14268, 17737, 16977, 12445, 17139, 19585
       185,     46000, 14179, 17880, 16942, 12490, 17054, 19614
       186,     46250, 14085, 18020, 16917, 12539, 16971, 19637
       187,     46500, 13983, 18155, 16902, 12592, 16890, 19654
       188,     46750, 13877, 18285, 16898, 12649, 16811, 19665
       189,     47000, 13765, 18410, 16905, 12709, 16734, 19671
       190,     47250, 13650, 18528, 16922, 12773, 16661, 19670
       191,     47500, 13530, 18638, 16950, 12839, 16592, 19662
       192,     47750, 13408, 18741, 16988, 12907, 16526, 19649
       193,     48000, 13284, 18834, 17037, 12977, 16465, 19630
       194,     48250, 13159, 18918, 17095, 13048, 16409, 19605
       195,     48500, 13033, 18993, 17163, 13120, 16358, 19574
       196,     48750, 12908, 19057, 17239, 13193, 16312, 19538
       197,     49000, 12784, 19110, 17324, 13266, 16273, 19496
       198,     49250, 12661, 19153, 17417, 13338, 16239, 19449
       199,     49500, 12542, 19184, 17518, 13410, 16211, 19398
       200,     49750, 12425, 19204, 17626, 13480, 16191, 19342
       201,     50000, 12313, 19212, 17739, 13548, 16176, 19281
       202,     50250, 12205, 19208, 17859, 13614, 16168, 19218
       203,     50500, 12103, 19192, 17983, 13678, 16167, 19150
       204,     50750, 12007, 19165, 18111, 13739, 16173, 19080
       205,     51000, 11918, 19127, 18242, 13796, 16185, 19007
       206,     51250, 11836, 19077, 18375, 13850, 16204, 18933
       207,     51500, 11761, 19017, 18511, 13899, 16230, 18856
       208,     51750, 11695, 18946, 18647, 13945, 16262, 18779
       209,     52000, 11637, 18865, 18782, 13985, 16300, 18701
       210,     52250, 11588, 18774, 18917, 14021, 16344, 18622
       211,     52500, 11549, 18675, 19051, 14052, 16393, 18544
       212,     52750, 11519, 18567, 19181, 14077, 16448, 18467
       213,     53000, 11499, 18451, 19309, 14097, 16508, 18391
       214,     53250, 11488, 18328, 19432, 14112, 16573, 18317
       215,     53500, 11488, 18199, 19550, 14120, 16641, 18245
       216,     53750, 11497, 18064, 19663, 14124, 16714, 18175
       217,     54000, 11516, 17925, 19769, 14121, 16790, 18109
       218,     54250, 11545, 17782, 19868, 14112, 16869, 18046
       219,     54500, 11583, 17635, 19960, 14098, 16950, 17987
       220,     54750, 11631, 17487, 20044, 14079, 17034, 17932
       221,     55000, 11687, 17338, 20118, 14054, 17118, 17881
       222,     55250, 11753, 17188, 20184, 14023, 17204, 17836
       223,     55500, 11826, 17040, 20241, 13988, 17290, 17795
       224,     55750, 11907, 16892, 20287, 13948, 17376, 17760
       225,     56000, 11996, 16748, 20323, 13902, 17461, 17731
       226,     56250, 12091, 16606, 20349, 13853, 17545, 17707
       227,     56500, 12193, 16469, 20364, 13800, 17627, 17689
       228,     56750, 12300, 16338, 20369, 13742, 17707, 17678
       229,     57000, 12412, 16212, 20363, 13682, 17784, 17672
       230,     57250, 12528, 16092, 20347, 13618, 17859, 17673
       231,     57500, 12648, 15980, 20319, 13552, 17929, 17679
       232,     57750, 12770, 15877, 20282, 13484, 17995, 17692
       233,     58000, 12895, 15782, 20235, 13413, 18057, 17711
       234,     58250, 13020, 15696, 20177, 13342, 18114, 17736
       235,     58500, 13147, 15620, 20110, 13269, 18166, 17766
       236,     58750, 13272, 15555, 20034, 13196, 18212, 17802
       237,     59000, 13397, 15500, 19950, 13123, 18253, 17843
       238,     59250, 13520, 15457, 19858, 13051, 18287, 17889
       239,     59500, 13640, 15424, 19758, 12979, 18315, 17941
       240,     59750, 13757, 15403, 19651, 12909, 18337, 17996
       241,     60000, 13869, 15394, 19538, 12840, 18352, 18056
       242,     60250, 13977, 15397, 19419, 12773, 18361, 18119
       243,     60500, 14080, 15411, 19296, 12710, 18362, 18186
       244,     60750, 14176, 15437, 19168, 12649, 18357, 18256
       245,     61000, 14266, 15474, 19038, 12591, 18346, 18328
       246,     61250, 14348, 15523, 18905, 12537, 18327, 18403
       247,     61500, 14423, 15582, 18770, 12487, 18302, 18479
       248,     61750, 14490, 15652, 18635, 12442, 18271, 18556
       249,     62000, 14548, 15732, 18500, 12401, 18234, 18634
       250,     62250, 14597, 15822, 18365, 12365, 18190, 18712
       251,     62500, 14637, 15920, 18233, 12334, 18141, 18789
       252,     62750, 14667, 16028, 18102, 12309, 18087, 18866
       253,     63000, 14688, 16142, 17976, 12288, 18028, 18942
       254,     63250, 14698, 16264, 17853, 12274, 17964, 19016
       255,     63500, 14699, 16393, 17735, 12265, 17895, 19088
       256,     63750, 14690, 16526, 17623, 12262, 17823, 19157
       257,     64000, 14671, 16665, 17517, 12264, 17748, 19223
       258,     64250, 14643, 16807, 17419, 12272, 17669, 19286
       259,     64500, 14605, 16953, 17327, 12286, 17589, 19345
       260,     64750, 14557, 17100, 17244, 12306, 17506, 19399
       261,     65000, 14501, 17248, 17170, 12331, 17422, 19449
       262,     65250, 14436, 17397, 17105, 12361, 17336, 19495
       263,     65500, 14363, 17545, 17049, 12396, 17251, 19535
       264,     65750, 14282, 17692, 17003, 12436, 17165, 19570
       265,     66000, 14193, 17836, 16967, 12481, 17081, 19599
       266,     66250, 14098, 17976, 16942, 12531, 16997, 19622
       267,     66500, 13997, 18112, 16927, 12584, 16915, 19640
       268,     66750, 13890, 18244, 16922, 12641, 16836, 19651
       269,     67000, 13778, 18369, 16929, 12701, 16759, 19656
       270,     67250, 13662, 18487, 16946, 12765, 16685, 19656
       271,     67500, 13543, 18599, 16973, 12831, 16615, 19649
       272,     67750, 13420, 18702, 17011, 12899, 16549, 19636
       273,     68000, 13296, 18796, 17059, 12969, 16488, 19617
       274,     68250, 13171, 18881, 17116, 13041, 16431, 19592
       275,     68500, 13045, 18956, 17184, 13113, 16380, 19561
       276,     68750, 12919, 19021, 17260, 13186, 16334, 19525
       277,     69000, 12795, 19075, 17345, 13259, 16294, 19484
       278,     69250, 12672, 19118, 17437, 13332, 16260, 19437
       279,     69500, 12552, 19150, 17538, 13403, 16232, 19386
       280,     69750, 12436, 19170, 17645, 13473, 16211, 19330
       281,     70000, 12323, 19179, 17758, 13542, 16196, 19270
       282,     70250, 12215, 19175, 17877, 13608, 16188, 19207
       283,     70500, 12113, 19161, 18001, 13672, 16186, 19139
       284,     70750, 12017, 19134, 18128, 13733, 16192, 19070
       285,     71000, 11927, 19096, 18259, 13790, 16204, 18997
       286,     71250, 11845, 19047, 18393, 13844, 16222, 18922
       287,     71500, 11770, 18988, 18528, 13894, 16247, 18846
       288,     71750, 11704, 18917, 18663, 13939, 16279, 18769
       289,     72000, 11646, 18837, 18799, 13980, 16317, 18691
       290,     72250, 11597, 18747, 18933, 14016, 16360, 18613
       291,     72500, 11557, 18647, 19066, 14047, 16409, 18535
       292,     72750, 11527, 18540, 19197, 14072, 16464, 18458
       293,     73000, 11507, 18425, 19324, 14092, 16524, 18382
       294,     73250, 11496, 18302, 19447, 14107, 16588, 18308
       295,     73500, 11495, 18173, 19565, 14116, 16656, 18236
       296,     73750, 11505, 18039, 19677, 14119, 16729, 18167
       297,     74000, 11524, 17900, 19783, 14116, 16805, 18100
       298,     74250, 11552, 17758, 19882, 14108, 16883, 18038
       299,     74500, 11590, 17612, 19973, 14094, 16964, 17979
       300,     74750, 11638, 17464, 20057, 14075, 17047, 17924
       301,     75000, 11694, 17315, 20131, 14050, 17132, 17874
       302,     75250, 11759, 17166, 20197, 14019, 17217, 17828
       303,     75500, 11833, 17018, 20253, 13984, 17303, 17788
       304,     75750, 11914, 16871, 20299, 13944, 17389, 17753
