EMTDC_Simulation,1,1999
6,6A,0D
1,IaA:A1,A,A1,kA,0.269402E-04,-.467429,0.0,0,32767,1.000000,1,S
2,IbA:A2,A,A2,kA,0.161829E-02,-24.1156,0.0,0,32767,1.000000,1,S
3,IcA:A3,A,A3,kA,0.159313E-02,-28.4996,0.0,0,32767,1.000000,1,S
4,IaB:A4,A,A4,kA,0.260900E-04,-.401573,0.0,0,32767,1.000000,1,S
5,IbB:A5,A,A5,kA,0.841145E-04,-1.24689,0.0,0,32767,1.000000,1,S
6,IcB:A6,A,A6,kA,0.108293E-03,-1.90466,0.0,0,32767,1.000000,1,S
50
1
4000,10001
03/06/2022,14:58:12.000000
03/06/2022,14:58:12.000000
ASCII
1
         1,         0, 17351, 14902, 17889, 15392, 14824, 17588
         2,       250, 21592, 14682, 18041, 15392, 14824, 17588
         3,       500, 23151, 14649, 18048, 11060, 17188, 16795
         4,       750, 24421, 14825, 17847,  9537, 17955, 16566
         5,      1000, 26518, 14778, 17860, 10044, 15955, 17998
         6,      1250, 25152, 14904, 17754,  9447, 14737, 19088
         7,      1500, 24587, 14992, 17675,  8129, 15402, 18889
         8,      1750, 25509, 14940, 17712,  8889, 12818, 20713
         9,      2000, 24489, 15112, 17555,  8028, 14379, 19707
        10,      2250, 24616, 15074, 17591,  6417, 15378, 19320
        11,      2500, 27000, 14873, 17755,  6429, 14169, 20256
        12,      2750, 28694, 14801, 17800,  5217, 15237, 19719
        13,      3000, 29592, 14790, 17796,  4042, 15432, 19850
        14,      3250, 30414, 14860, 17711,  4160, 14756, 20347
        15,      3500, 29722, 14962, 17619,  3843, 14421, 20683
        16,      3750, 28779, 15015, 17581,  3885, 13585, 21323
        17,      4000, 28319, 15026, 17577,  4566, 12495, 22005
        18,      4250, 27506, 15089, 17528,  4819, 12266, 22122
        19,      4500, 26507, 15148, 17484,  4680, 12673, 21839
        20,      4750, 26554, 15104, 17528,  4975, 12446, 21945
        21,      5000, 26882, 15028, 17600,  5081, 12412, 21945
        22,      5250, 27069, 14993, 17632,  5046, 12538, 21856
        23,      5500, 27152, 14994, 17630,  5646, 11940, 22176
        24,      5750, 26233, 15081, 17557,  6190, 11777, 22171
        25,      6000, 24859, 15145, 17515,  6830, 11243, 22432
        26,      6250, 23719, 15166, 17513,  8006, 10276, 22900
        27,      6500, 22358, 15196, 17505,  9011,  9875, 22969
        28,      6750, 21030, 15231, 17493,  9911,  9690, 22896
        29,      7000, 19991, 15246, 17495, 10866,  9592, 22742
        30,      7250, 19103, 15230, 17526, 11664,  9635, 22517
        31,      7500, 18541, 15185, 17582, 12523,  9504, 22411
        32,      7750, 18005, 15162, 17613, 13509,  9292, 22338
        33,      8000, 17053, 15188, 17603, 14545,  9086, 22249
        34,      8250, 15679, 15238, 17576, 15670,  8853, 22159
        35,      8500, 14216, 15270, 17568, 16940,  8428, 22183
        36,      8750, 12783, 15282, 17580, 18247,  8026, 22180
        37,      9000, 11413, 15292, 17593, 19498,  7839, 22024
        38,      9250, 10173, 15301, 17605, 20691,  7801, 21766
        39,      9500,  9070, 15302, 17623, 21750,  7930, 21411
        40,      9750,  8178, 15279, 17661, 22732,  8036, 21092
        41,     10000,  7511, 15244, 17708, 23751,  8037, 20846
        42,     10250,  6801, 15229, 17735, 24739,  8071, 20582
        43,     10500,  5902, 15241, 17738, 25716,  8095, 20327
        44,     10750,  4861, 15260, 17737, 26722,  8072, 20103
        45,     11000,  3811, 15267, 17747, 27703,  8040, 19892
        46,     11250,  2898, 15260, 17770, 28632,  8032, 19674
        47,     11500,  2137, 15250, 17793, 29473,  8149, 19380
        48,     11750,  1493, 15241, 17813, 30176,  8415, 19004
        49,     12000,  1015, 15224, 17838, 30746,  8746, 18610
        50,     12250,   743, 15194, 17874, 31230,  9040, 18265
        51,     12500,   610, 15161, 17909, 31651,  9304, 17958
        52,     12750,   490, 15141, 17931, 32009,  9574, 17662
        53,     13000,   317, 15136, 17939, 32306,  9842, 17383
        54,     13250,   119, 15134, 17945, 32538, 10101, 17126
        55,     13500,     0, 15122, 17959, 32698, 10354, 16890
        56,     13750,    39, 15101, 17979, 32767, 10636, 16655
        57,     14000,   220, 15080, 17998, 32710, 11006, 16382
        58,     14250,   525, 15059, 18014, 32520, 11448, 16083
        59,     14500,   972, 15034, 18032, 32215, 11906, 15801
        60,     14750,  1567, 15002, 18054, 31815, 12335, 15564
        61,     15000,  2260, 14971, 18073, 31343, 12731, 15371
        62,     15250,  2974, 14950, 18083, 30805, 13118, 15200
        63,     15500,  3672, 14938, 18083, 30197, 13500, 15049
        64,     15750,  4387, 14926, 18083, 29521, 13865, 14929
        65,     16000,  5182, 14909, 18088, 28780, 14215, 14836
        66,     16250,  6084, 14887, 18095, 27962, 14580, 14749
        67,     16500,  7079, 14865, 18100, 27055, 14981, 14656
        68,     16750,  8148, 14846, 18102, 26064, 15401, 14569
        69,     17000,  9289, 14824, 18104, 25007, 15805, 14509
        70,     17250, 10497, 14801, 18107, 23905, 16168, 14493
        71,     17500, 11736, 14780, 18107, 22772, 16490, 14516
        72,     17750, 12955, 14767, 18100, 21616, 16789, 14562
        73,     18000, 14135, 14760, 18088, 20439, 17066, 14630
        74,     18250, 15303, 14752, 18076, 19247, 17314, 14725
        75,     18500, 16490, 14742, 18066, 18042, 17536, 14843
        76,     18750, 17703, 14730, 18057, 16824, 17750, 14970
        77,     19000, 18927, 14721, 18047, 15593, 17964, 15100
        78,     19250, 20145, 14713, 18034, 14355, 18165, 15242
        79,     19500, 21350, 14705, 18021, 13129, 18331, 15409
        80,     19750, 22533, 14698, 18008, 11930, 18449, 15606
        81,     20000, 23668, 14694, 17993, 10770, 18526, 15826
        82,     20250, 24726, 14696, 17974,  9652, 18570, 16061
        83,     20500, 25699, 14701, 17952,  8583, 18585, 16307
        84,     20750, 26606, 14706, 17931,  7566, 18568, 16565
        85,     21000, 27463, 14710, 17913,  6603, 18522, 16833
        86,     21250, 28271, 14714, 17895,  5698, 18458, 17101
        87,     21500, 29016, 14721, 17876,  4851, 18380, 17365
        88,     21750, 29688, 14729, 17856,  4069, 18280, 17631
        89,     22000, 30284, 14737, 17838,  3363, 18145, 17907
        90,     22250, 30796, 14747, 17819,  2743, 17971, 18191
        91,     22500, 31210, 14759, 17800,  2214, 17765, 18478
        92,     22750, 31512, 14774, 17779,  1776, 17536, 18762
        93,     23000, 31705, 14791, 17759,  1430, 17285, 19040
        94,     23250, 31802, 14808, 17740,  1178, 17013, 19312
        95,     23500, 31816, 14825, 17723,  1018, 16725, 19575
        96,     23750, 31748, 14841, 17707,   948, 16426, 19823
        97,     24000, 31592, 14858, 17692,   969, 16120, 20056
        98,     24250, 31344, 14876, 17678,  1082, 15803, 20275
        99,     24500, 31007, 14894, 17666,  1289, 15468, 20485
       100,     24750, 30580, 14913, 17654,  1592, 15118, 20684
       101,     25000, 30059, 14932, 17643,  1990, 14757, 20869
       102,     25250, 29442, 14953, 17633,  2477, 14393, 21034
       103,     25500, 28738, 14974, 17623,  3050, 14028, 21179
       104,     25750, 27961, 14993, 17617,  3704, 13664, 21305
       105,     26000, 27122, 15012, 17612,  4434, 13304, 21408
       106,     26250, 26225, 15029, 17609,  5234, 12954, 21488
       107,     26500, 25272, 15047, 17608,  6098, 12615, 21543
       108,     26750, 24266, 15064, 17608,  7024, 12285, 21576
       109,     27000, 23214, 15080, 17609,  8007, 11962, 21590
       110,     27250, 22119, 15095, 17612,  9042, 11649, 21584
       111,     27500, 20985, 15109, 17617, 10123, 11350, 21556
       112,     27750, 19818, 15124, 17622, 11242, 11069, 21504
       113,     28000, 18629, 15137, 17629, 12391, 10809, 21430
       114,     28250, 17430, 15148, 17638, 13562, 10570, 21333
       115,     28500, 16232, 15157, 17649, 14748, 10355, 21214
       116,     28750, 15041, 15165, 17661, 15940, 10166, 21074
       117,     29000, 13862, 15171, 17674, 17132, 10005, 20912
       118,     29250, 12700, 15177, 17689, 18316,  9869, 20732
       119,     29500, 11563, 15180, 17704, 19487,  9757, 20537
       120,     29750, 10457, 15182, 17721, 20638,  9670, 20327
       121,     30000,  9386, 15183, 17738, 21762,  9612, 20101
       122,     30250,  8357, 15183, 17756, 22850,  9584, 19861
       123,     30500,  7379, 15181, 17774, 23896,  9585, 19608
       124,     30750,  6461, 15177, 17794, 24892,  9616, 19344
       125,     31000,  5611, 15171, 17814, 25833,  9677, 19070
       126,     31250,  4832, 15164, 17835, 26711,  9768, 18788
       127,     31500,  4128, 15155, 17855, 27523,  9889, 18499
       128,     31750,  3501, 15145, 17876, 28263, 10035, 18206
       129,     32000,  2956, 15134, 17897, 28927, 10207, 17913
       130,     32250,  2496, 15121, 17917, 29512, 10403, 17620
       131,     32500,  2123, 15108, 17938, 30014, 10624, 17328
       132,     32750,  1838, 15093, 17957, 30428, 10869, 17038
       133,     33000,  1646, 15077, 17976, 30753, 11135, 16752
       134,     33250,  1550, 15060, 17995, 30985, 11423, 16473
       135,     33500,  1552, 15042, 18013, 31124, 11729, 16201
       136,     33750,  1649, 15024, 18031, 31168, 12053, 15939
       137,     34000,  1839, 15005, 18047, 31117, 12392, 15689
       138,     34250,  2123, 14985, 18062, 30971, 12742, 15451
       139,     34500,  2497, 14965, 18076, 30733, 13102, 15229
       140,     34750,  2960, 14945, 18089, 30404, 13470, 15023
       141,     35000,  3508, 14924, 18100, 29984, 13844, 14834
       142,     35250,  4138, 14904, 18110, 29477, 14222, 14662
       143,     35500,  4847, 14884, 18119, 28886, 14602, 14509
       144,     35750,  5633, 14864, 18126, 28213, 14982, 14376
       145,     36000,  6489, 14844, 18132, 27463, 15359, 14264
       146,     36250,  7412, 14824, 18136, 26641, 15731, 14173
       147,     36500,  8392, 14806, 18138, 25752, 16095, 14105
       148,     36750,  9426, 14787, 18139, 24801, 16449, 14059
       149,     37000, 10506, 14770, 18138, 23794, 16790, 14036
       150,     37250, 11626, 14754, 18136, 22738, 17117, 14037
       151,     37500, 12778, 14739, 18132, 21639, 17429, 14060
       152,     37750, 13957, 14725, 18126, 20504, 17722, 14105
       153,     38000, 15154, 14712, 18119, 19338, 17997, 14173
       154,     38250, 16365, 14700, 18111, 18150, 18250, 14262
       155,     38500, 17580, 14689, 18101, 16947, 18480, 14373
       156,     38750, 18792, 14680, 18090, 15736, 18687, 14505
       157,     39000, 19993, 14673, 18077, 14524, 18868, 14656
       158,     39250, 21176, 14666, 18063, 13320, 19022, 14827
       159,     39500, 22334, 14662, 18048, 12131, 19148, 15015
       160,     39750, 23459, 14659, 18032, 10963, 19245, 15221
       161,     40000, 24544, 14658, 18015,  9825, 19315, 15441
       162,     40250, 25583, 14658, 17998,  8722, 19355, 15676
       163,     40500, 26570, 14660, 17979,  7662, 19366, 15923
       164,     40750, 27500, 14663, 17960,  6651, 19347, 16180
       165,     41000, 28366, 14668, 17941,  5695, 19300, 16448
       166,     41250, 29162, 14674, 17921,  4801, 19223, 16723
       167,     41500, 29884, 14682, 17901,  3973, 19118, 17004
       168,     41750, 30527, 14691, 17880,  3217, 18984, 17289
       169,     42000, 31087, 14702, 17860,  2538, 18824, 17578
       170,     42250, 31561, 14714, 17840,  1940, 18638, 17867
       171,     42500, 31946, 14727, 17820,  1426, 18427, 18154
       172,     42750, 32240, 14741, 17800,   999, 18192, 18439
       173,     43000, 32441, 14757, 17781,   662, 17936, 18719
       174,     43250, 32548, 14773, 17763,   417, 17659, 18993
       175,     43500, 32561, 14790, 17745,   266, 17364, 19259
       176,     43750, 32478, 14808, 17728,   209, 17052, 19515
       177,     44000, 32301, 14827, 17713,   247, 16725, 19760
       178,     44250, 32030, 14846, 17698,   379, 16385, 19992
       179,     44500, 31668, 14865, 17684,   606, 16034, 20210
       180,     44750, 31216, 14885, 17672,   924, 15675, 20412
       181,     45000, 30678, 14905, 17660,  1333, 15310, 20598
       182,     45250, 30056, 14925, 17651,  1830, 14940, 20765
       183,     45500, 29356, 14945, 17642,  2411, 14569, 20913
       184,     45750, 28580, 14964, 17636,  3073, 14199, 21042
       185,     46000, 27735, 14984, 17630,  3812, 13831, 21149
       186,     46250, 26824, 15003, 17626,  4623, 13469, 21235
       187,     46500, 25854, 15021, 17624,  5502, 13113, 21299
       188,     46750, 24831, 15039, 17624,  6443, 12768, 21341
       189,     47000, 23760, 15055, 17625,  7440, 12434, 21360
       190,     47250, 22649, 15071, 17627,  8487, 12114, 21356
       191,     47500, 21505, 15086, 17631,  9577, 11810, 21330
       192,     47750, 20334, 15100, 17637, 10704, 11524, 21281
       193,     48000, 19144, 15113, 17645, 11860, 11257, 21209
       194,     48250, 17942, 15124, 17653, 13039, 11012, 21116
       195,     48500, 16736, 15134, 17663, 14234, 10789, 21001
       196,     48750, 15533, 15143, 17675, 15436, 10590, 20866
       197,     49000, 14341, 15150, 17688, 16639, 10417, 20711
       198,     49250, 13166, 15156, 17702, 17835, 10270, 20537
       199,     49500, 12016, 15160, 17717, 19016, 10150, 20345
       200,     49750, 10899, 15163, 17733, 20176, 10058, 20137
       201,     50000,  9820, 15164, 17750, 21308,  9995, 19913
       202,     50250,  8788, 15163, 17768, 22403,  9961, 19676
       203,     50500,  7807, 15161, 17787, 23456,  9957, 19426
       204,     50750,  6885, 15157, 17806, 24459,  9982, 19165
       205,     51000,  6027, 15152, 17826, 25407, 10036, 18894
       206,     51250,  5238, 15146, 17846, 26295, 10118, 18616
       207,     51500,  4523, 15137, 17867, 27115, 10230, 18332
       208,     51750,  3886, 15128, 17887, 27864, 10368, 18044
       209,     52000,  3332, 15117, 17908, 28537, 10534, 17753
       210,     52250,  2864, 15105, 17928, 29129, 10726, 17462
       211,     52500,  2485, 15091, 17948, 29637, 10942, 17171
       212,     52750,  2197, 15077, 17968, 30057, 11182, 16884
       213,     53000,  2002, 15061, 17987, 30388, 11443, 16601
       214,     53250,  1901, 15044, 18005, 30627, 11725, 16325
       215,     53500,  1895, 15027, 18023, 30772, 12025, 16056
       216,     53750,  1983, 15009, 18040, 30823, 12342, 15798
       217,     54000,  2166, 14990, 18056, 30779, 12674, 15550
       218,     54250,  2442, 14971, 18071, 30641, 13019, 15316
       219,     54500,  2810, 14951, 18085, 30409, 13374, 15096
       220,     54750,  3266, 14931, 18098, 30085, 13738, 14892
       221,     55000,  3810, 14911, 18109, 29671, 14108, 14704
       222,     55250,  4436, 14891, 18119, 29170, 14482, 14535
       223,     55500,  5142, 14870, 18127, 28583, 14857, 14384
       224,     55750,  5922, 14851, 18134, 27916, 15232, 14254
       225,     56000,  6773, 14831, 18140, 27172, 15604, 14144
       226,     56250,  7688, 14812, 18144, 26356, 15970, 14056
       227,     56500,  8663, 14793, 18146, 25472, 16329, 13990
       228,     56750,  9691, 14776, 18147, 24527, 16679, 13947
       229,     57000, 10766, 14759, 18146, 23525, 17016, 13926
       230,     57250, 11881, 14742, 18143, 22474, 17340, 13928
       231,     57500, 13029, 14727, 18139, 21379, 17648, 13952
       232,     57750, 14204, 14713, 18134, 20248, 17937, 14000
       233,     58000, 15398, 14701, 18127, 19087, 18208, 14069
       234,     58250, 16604, 14689, 18118, 17904, 18457, 14161
       235,     58500, 17814, 14679, 18108, 16706, 18683, 14274
       236,     58750, 19021, 14670, 18096, 15499, 18885, 14407
       237,     59000, 20218, 14662, 18084, 14292, 19062, 14561
       238,     59250, 21396, 14657, 18070, 13093, 19212, 14733
       239,     59500, 22549, 14652, 18055, 11907, 19335, 14923
       240,     59750, 23670, 14649, 18039, 10744, 19430, 15130
       241,     60000, 24752, 14648, 18022,  9609, 19496, 15352
       242,     60250, 25788, 14649, 18004,  8510, 19533, 15588
       243,     60500, 26772, 14650, 17985,  7454, 19540, 15837
       244,     60750, 27698, 14654, 17966,  6447, 19519, 16097
       245,     61000, 28559, 14659, 17946,  5495, 19467, 16365
       246,     61250, 29352, 14665, 17926,  4605, 19387, 16642
       247,     61500, 30070, 14674, 17906,  3781, 19279, 16925
       248,     61750, 30709, 14683, 17885,  3029, 19143, 17212
       249,     62000, 31266, 14694, 17865,  2353, 18980, 17501
       250,     62250, 31737, 14706, 17845,  1758, 18791, 17792
       251,     62500, 32119, 14719, 17825,  1247, 18577, 18081
       252,     62750, 32410, 14734, 17805,   823, 18340, 18367
       253,     63000, 32608, 14749, 17786,   490, 18081, 18649
       254,     63250, 32712, 14766, 17768,   248, 17801, 18924
       255,     63500, 32721, 14783, 17750,   100, 17503, 19191
       256,     63750, 32635, 14801, 17733,    46, 17189, 19448
       257,     64000, 32455, 14820, 17717,    87, 16859, 19694
       258,     64250, 32181, 14839, 17702,   223, 16517, 19928
       259,     64500, 31816, 14859, 17688,   452, 16163, 20147
       260,     64750, 31362, 14878, 17676,   773, 15802, 20350
       261,     65000, 30821, 14898, 17665,  1185, 15434, 20537
       262,     65250, 30197, 14919, 17655,  1684, 15062, 20705
       263,     65500, 29494, 14939, 17646,  2268, 14689, 20854
       264,     65750, 28716, 14958, 17639,  2933, 14316, 20984
       265,     66000, 27868, 14978, 17634,  3675, 13946, 21092
       266,     66250, 26954, 14997, 17630,  4489, 13582, 21180
       267,     66500, 25982, 15015, 17628,  5370, 13224, 21245
       268,     66750, 24956, 15033, 17627,  6313, 12877, 21287
       269,     67000, 23883, 15050, 17628,  7313, 12541, 21307
       270,     67250, 22770, 15066, 17631,  8362, 12219, 21305
       271,     67500, 21624, 15081, 17635,  9454, 11913, 21279
       272,     67750, 20451, 15095, 17641, 10583, 11625, 21231
       273,     68000, 19259, 15108, 17648, 11742, 11357, 21160
       274,     68250, 18055, 15119, 17657, 12923, 11109, 21068
       275,     68500, 16847, 15129, 17667, 14120, 10884, 20954
       276,     68750, 15641, 15138, 17678, 15325, 10684, 20820
       277,     69000, 14447, 15145, 17691, 16529, 10509, 20666
       278,     69250, 13270, 15151, 17705, 17727, 10360, 20493
       279,     69500, 12118, 15155, 17720, 18911, 10239, 20302
       280,     69750, 10999, 15158, 17736, 20073, 10145, 20094
       281,     70000,  9919, 15159, 17753, 21206, 10081, 19871
       282,     70250,  8884, 15159, 17771, 22303, 10045, 19635
       283,     70500,  7902, 15157, 17790, 23358, 10039, 19385
       284,     70750,  6978, 15153, 17809, 24363, 10062, 19125
       285,     71000,  6118, 15148, 17829, 25313, 10115, 18855
       286,     71250,  5327, 15142, 17849, 26202, 10196, 18578
       287,     71500,  4611, 15133, 17869, 27024, 10306, 18295
       288,     71750,  3973, 15124, 17890, 27775, 10443, 18007
       289,     72000,  3417, 15113, 17910, 28449, 10608, 17717
       290,     72250,  2948, 15101, 17930, 29043, 10798, 17426
       291,     72500,  2567, 15088, 17950, 29552, 11013, 17137
       292,     72750,  2277, 15073, 17970, 29974, 11251, 16850
       293,     73000,  2080, 15057, 17989, 30307, 11511, 16568
       294,     73250,  1978, 15041, 18008, 30547, 11792, 16292
       295,     73500,  1970, 15024, 18025, 30694, 12091, 16024
       296,     73750,  2057, 15005, 18042, 30746, 12407, 15766
       297,     74000,  2239, 14987, 18058, 30704, 12738, 15519
       298,     74250,  2514, 14967, 18073, 30567, 13081, 15286
       299,     74500,  2880, 14948, 18087, 30337, 13435, 15066
       300,     74750,  3335, 14928, 18100, 30014, 13798, 14862
       301,     75000,  3877, 14908, 18111, 29601, 14166, 14675
       302,     75250,  4502, 14888, 18121, 29101, 14539, 14506
       303,     75500,  5207, 14867, 18129, 28516, 14914, 14356
       304,     75750,  5986, 14848, 18136, 27850, 15287, 14227
