EMTDC_Simulation,1,1999
6,6A,0D
1,IaA:A1,A,A1,kA,0.810194E-04,-.943690,0.0,0,32767,1.000000,1,S
2,IbA:A2,A,A2,kA,0.193473E-03,-3.26880,0.0,0,32767,1.000000,1,S
3,IcA:A3,A,A3,kA,0.222185E-03,-4.14945,0.0,0,32767,1.000000,1,S
4,IaB:A4,A,A4,kA,0.834532E-04,-1.75107,0.0,0,32767,1.000000,1,S
5,IbB:A5,A,A5,kA,0.449859E-03,-8.59651,0.0,0,32767,1.000000,1,S
6,IcB:A6,A,A6,kA,0.551789E-03,-10.5362,0.0,0,32767,1.000000,1,S
50
1
4000,10001
03/06/2022,15:05:56.000000
03/06/2022,15:05:56.000000
ASCII
1
         1,         0, 11648, 16895, 18676, 20983, 19109, 19095
         2,       250, 13056, 15057, 19763, 20983, 19109, 19095
         3,       500, 13573, 14785, 19811, 19629, 19551, 18940
         4,       750, 13996, 16256, 18376, 19153, 19694, 18895
         5,      1000, 14693, 15862, 18465, 19313, 19319, 19176
         6,      1250, 14239, 16919, 17711, 19127, 19092, 19390
         7,      1500, 14050, 17654, 17139, 18715, 19216, 19350
         8,      1750, 14357, 17217, 17408, 18953, 18733, 19708
         9,      2000, 14017, 18652, 16282, 18684, 19025, 19511
        10,      2250, 14060, 18339, 16539, 18180, 19213, 19434
        11,      2500, 14852, 16659, 17713, 18184, 18987, 19618
        12,      2750, 15414, 16052, 18037, 17805, 19186, 19513
        13,      3000, 15712, 15961, 18007, 17439, 19222, 19539
        14,      3250, 15986, 16545, 17399, 17476, 19095, 19636
        15,      3500, 15756, 17397, 16741, 17378, 19033, 19702
        16,      3750, 15443, 17839, 16470, 17391, 18877, 19827
        17,      4000, 15290, 17938, 16440, 17603, 18673, 19961
        18,      4250, 15019, 18458, 16085, 17682, 18631, 19984
        19,      4500, 14688, 18951, 15778, 17639, 18707, 19928
        20,      4750, 14704, 18585, 16090, 17731, 18665, 19949
        21,      5000, 14812, 17952, 16602, 17764, 18658, 19949
        22,      5250, 14874, 17662, 16832, 17753, 18682, 19932
        23,      5500, 14901, 17668, 16816, 17941, 18570, 19995
        24,      5750, 14596, 18396, 16294, 18111, 18539, 19994
        25,      6000, 14140, 18930, 15995, 18311, 18439, 20045
        26,      6250, 13761, 19102, 15983, 18678, 18259, 20136
        27,      6500, 13309, 19357, 15926, 18992, 18184, 20150
        28,      6750, 12868, 19646, 15835, 19273, 18150, 20136
        29,      7000, 12523, 19773, 15851, 19571, 18131, 20105
        30,      7250, 12228, 19641, 16073, 19821, 18139, 20061
        31,      7500, 12041, 19260, 16473, 20089, 18115, 20040
        32,      7750, 11862, 19074, 16700, 20397, 18075, 20026
        33,      8000, 11546, 19288, 16629, 20721, 18037, 20009
        34,      8250, 11090, 19707, 16431, 21072, 17993, 19991
        35,      8500, 10604, 19971, 16378, 21469, 17914, 19996
        36,      8750, 10128, 20075, 16461, 21877, 17839, 19995
        37,      9000,  9673, 20158, 16555, 22267, 17804, 19964
        38,      9250,  9262, 20229, 16643, 22640, 17797, 19914
        39,      9500,  8896, 20238, 16768, 22971, 17821, 19844
        40,      9750,  8599, 20048, 17042, 23277, 17841, 19782
        41,     10000,  8377, 19755, 17378, 23595, 17841, 19733
        42,     10250,  8141, 19630, 17573, 23904, 17847, 19682
        43,     10500,  7842, 19728, 17597, 24209, 17852, 19632
        44,     10750,  7497, 19887, 17585, 24523, 17848, 19588
        45,     11000,  7149, 19950, 17656, 24830, 17842, 19546
        46,     11250,  6846, 19888, 17821, 25119, 17841, 19503
        47,     11500,  6593, 19804, 17986, 25382, 17862, 19446
        48,     11750,  6379, 19727, 18131, 25601, 17912, 19372
        49,     12000,  6220, 19587, 18311, 25779, 17974, 19295
        50,     12250,  6130, 19333, 18565, 25930, 18029, 19227
        51,     12500,  6085, 19060, 18819, 26062, 18078, 19167
        52,     12750,  6046, 18895, 18977, 26173, 18129, 19109
        53,     13000,  5988, 18853, 19035, 26266, 18178, 19054
        54,     13250,  5923, 18834, 19075, 26339, 18227, 19004
        55,     13500,  5884, 18735, 19175, 26388, 18274, 18958
        56,     13750,  5897, 18561, 19323, 26410, 18327, 18911
        57,     14000,  5957, 18382, 19456, 26392, 18396, 18858
        58,     14250,  6058, 18209, 19570, 26332, 18479, 18800
        59,     14500,  6207, 17996, 19701, 26237, 18564, 18744
        60,     14750,  6405, 17733, 19858, 26112, 18644, 18698
        61,     15000,  6635, 17478, 19996, 25964, 18718, 18660
        62,     15250,  6872, 17301, 20064, 25796, 18791, 18626
        63,     15500,  7104, 17199, 20069, 25606, 18862, 18597
        64,     15750,  7342, 17100, 20068, 25395, 18930, 18573
        65,     16000,  7606, 16951, 20101, 25164, 18996, 18555
        66,     16250,  7906, 16768, 20151, 24908, 19064, 18538
        67,     16500,  8236, 16591, 20185, 24624, 19139, 18520
        68,     16750,  8591, 16425, 20199, 24315, 19217, 18503
        69,     17000,  8970, 16246, 20217, 23985, 19293, 18491
        70,     17250,  9372, 16052, 20240, 23641, 19360, 18488
        71,     17500,  9783, 15881, 20239, 23287, 19421, 18492
        72,     17750, 10188, 15770, 20188, 22926, 19476, 18502
        73,     18000, 10580, 15706, 20101, 22558, 19528, 18515
        74,     18250, 10968, 15644, 20013, 22186, 19574, 18534
        75,     18500, 11363, 15557, 19945, 21809, 19616, 18557
        76,     18750, 11766, 15461, 19881, 21429, 19656, 18582
        77,     19000, 12172, 15380, 19804, 21044, 19696, 18607
        78,     19250, 12577, 15316, 19712, 20658, 19733, 18635
        79,     19500, 12977, 15253, 19621, 20275, 19764, 18668
        80,     19750, 13370, 15193, 19530, 19901, 19786, 18706
        81,     20000, 13747, 15161, 19421, 19538, 19801, 18749
        82,     20250, 14098, 15172, 19282, 19189, 19809, 18795
        83,     20500, 14421, 15215, 19128, 18855, 19812, 18844
        84,     20750, 14723, 15259, 18979, 18538, 19809, 18894
        85,     21000, 15007, 15294, 18845, 18237, 19800, 18947
        86,     21250, 15276, 15330, 18716, 17954, 19788, 18999
        87,     21500, 15523, 15382, 18580, 17690, 19773, 19051
        88,     21750, 15746, 15448, 18441, 17446, 19755, 19103
        89,     22000, 15944, 15520, 18306, 17226, 19729, 19157
        90,     22250, 16114, 15600, 18175, 17032, 19697, 19213
        91,     22500, 16251, 15700, 18037, 16867, 19658, 19269
        92,     22750, 16352, 15829, 17889, 16730, 19616, 19325
        93,     23000, 16416, 15973, 17741, 16622, 19569, 19380
        94,     23250, 16448, 16115, 17605, 16544, 19518, 19433
        95,     23500, 16453, 16250, 17485, 16494, 19464, 19484
        96,     23750, 16430, 16387, 17375, 16472, 19408, 19533
        97,     24000, 16378, 16532, 17267, 16479, 19351, 19579
        98,     24250, 16295, 16683, 17166, 16514, 19292, 19622
        99,     24500, 16183, 16834, 17075, 16579, 19229, 19663
       100,     24750, 16041, 16988, 16993, 16674, 19164, 19702
       101,     25000, 15868, 17150, 16915, 16798, 19097, 19738
       102,     25250, 15663, 17323, 16839, 16950, 19029, 19770
       103,     25500, 15429, 17496, 16773, 17129, 18960, 19799
       104,     25750, 15171, 17661, 16724, 17334, 18892, 19823
       105,     26000, 14892, 17815, 16692, 17562, 18825, 19844
       106,     26250, 14595, 17962, 16672, 17811, 18760, 19859
       107,     26500, 14278, 18108, 16661, 18082, 18696, 19870
       108,     26750, 13944, 18249, 16660, 18371, 18635, 19877
       109,     27000, 13594, 18382, 16672, 18678, 18575, 19879
       110,     27250, 13230, 18508, 16695, 19001, 18516, 19878
       111,     27500, 12854, 18630, 16725, 19339, 18460, 19873
       112,     27750, 12466, 18749, 16763, 19688, 18408, 19862
       113,     28000, 12071, 18857, 16813, 20047, 18359, 19848
       114,     28250, 11673, 18951, 16877, 20413, 18314, 19829
       115,     28500, 11275, 19028, 16955, 20783, 18274, 19806
       116,     28750, 10879, 19093, 17042, 21156, 18239, 19778
       117,     29000, 10488, 19148, 17137, 21528, 18209, 19746
       118,     29250, 10102, 19191, 17240, 21897, 18184, 19711
       119,     29500,  9724, 19221, 17352, 22263, 18163, 19673
       120,     29750,  9356, 19239, 17471, 22623, 18147, 19631
       121,     30000,  9001, 19247, 17593, 22974, 18136, 19587
       122,     30250,  8659, 19244, 17721, 23313, 18130, 19540
       123,     30500,  8334, 19227, 17854, 23640, 18131, 19491
       124,     30750,  8029, 19193, 17994, 23951, 18137, 19439
       125,     31000,  7747, 19145, 18139, 24245, 18148, 19385
       126,     31250,  7489, 19083, 18287, 24519, 18165, 19330
       127,     31500,  7255, 19011, 18435, 24772, 18188, 19273
       128,     31750,  7047, 18928, 18584, 25003, 18215, 19216
       129,     32000,  6866, 18833, 18732, 25211, 18247, 19158
       130,     32250,  6713, 18728, 18879, 25393, 18284, 19101
       131,     32500,  6589, 18614, 19023, 25550, 18325, 19043
       132,     32750,  6494, 18493, 19164, 25679, 18371, 18987
       133,     33000,  6431, 18361, 19302, 25781, 18421, 18931
       134,     33250,  6399, 18219, 19437, 25853, 18474, 18876
       135,     33500,  6400, 18069, 19567, 25896, 18531, 18823
       136,     33750,  6432, 17913, 19691, 25910, 18592, 18771
       137,     34000,  6495, 17753, 19807, 25894, 18655, 18722
       138,     34250,  6590, 17589, 19916, 25848, 18721, 18676
       139,     34500,  6714, 17422, 20016, 25774, 18788, 18632
       140,     34750,  6868, 17253, 20108, 25671, 18857, 18592
       141,     35000,  7050, 17083, 20189, 25540, 18926, 18555
       142,     35250,  7259, 16914, 20260, 25381, 18997, 18521
       143,     35500,  7495, 16744, 20321, 25196, 19068, 18491
       144,     35750,  7756, 16576, 20373, 24986, 19139, 18465
       145,     36000,  8041, 16409, 20414, 24752, 19209, 18443
       146,     36250,  8347, 16247, 20444, 24495, 19279, 18425
       147,     36500,  8673, 16090, 20462, 24217, 19347, 18412
       148,     36750,  9016, 15939, 20468, 23920, 19413, 18403
       149,     37000,  9375, 15795, 20462, 23606, 19477, 18398
       150,     37250,  9747, 15659, 20445, 23276, 19538, 18398
       151,     37500, 10130, 15532, 20416, 22933, 19596, 18403
       152,     37750, 10521, 15414, 20376, 22578, 19651, 18412
       153,     38000, 10919, 15305, 20326, 22214, 19702, 18425
       154,     38250, 11321, 15206, 20265, 21843, 19749, 18443
       155,     38500, 11725, 15119, 20195, 21467, 19792, 18464
       156,     38750, 12128, 15043, 20114, 21089, 19831, 18490
       157,     39000, 12527, 14979, 20024, 20710, 19865, 18520
       158,     39250, 12920, 14928, 19925, 20334, 19893, 18553
       159,     39500, 13304, 14891, 19817, 19963, 19917, 18590
       160,     39750, 13678, 14866, 19703, 19598, 19935, 18631
       161,     40000, 14038, 14854, 19581, 19243, 19948, 18674
       162,     40250, 14383, 14856, 19454, 18898, 19956, 18720
       163,     40500, 14711, 14871, 19321, 18567, 19958, 18768
       164,     40750, 15020, 14898, 19185, 18252, 19954, 18819
       165,     41000, 15307, 14939, 19045, 17953, 19945, 18871
       166,     41250, 15572, 14992, 18902, 17674, 19931, 18925
       167,     41500, 15812, 15057, 18758, 17416, 19911, 18980
       168,     41750, 16025, 15135, 18612, 17180, 19886, 19036
       169,     42000, 16211, 15224, 18467, 16968, 19856, 19093
       170,     42250, 16369, 15324, 18322, 16781, 19822, 19149
       171,     42500, 16496, 15435, 18180, 16620, 19782, 19206
       172,     42750, 16594, 15554, 18040, 16487, 19738, 19262
       173,     43000, 16661, 15683, 17903, 16382, 19690, 19317
       174,     43250, 16696, 15819, 17772, 16306, 19639, 19370
       175,     43500, 16700, 15962, 17646, 16259, 19584, 19422
       176,     43750, 16673, 16112, 17525, 16241, 19525, 19473
       177,     44000, 16614, 16267, 17412, 16253, 19464, 19521
       178,     44250, 16524, 16427, 17305, 16294, 19401, 19566
       179,     44500, 16403, 16590, 17207, 16365, 19335, 19609
       180,     44750, 16253, 16755, 17118, 16465, 19268, 19649
       181,     45000, 16074, 16922, 17038, 16593, 19200, 19685
       182,     45250, 15868, 17089, 16968, 16748, 19131, 19718
       183,     45500, 15635, 17255, 16909, 16929, 19061, 19747
       184,     45750, 15377, 17419, 16860, 17136, 18992, 19772
       185,     46000, 15096, 17580, 16822, 17367, 18924, 19793
       186,     46250, 14794, 17738, 16795, 17621, 18856, 19810
       187,     46500, 14471, 17891, 16779, 17895, 18790, 19822
       188,     46750, 14131, 18038, 16775, 18189, 18725, 19830
       189,     47000, 13776, 18179, 16782, 18500, 18663, 19834
       190,     47250, 13407, 18312, 16801, 18827, 18603, 19833
       191,     47500, 13026, 18436, 16831, 19168, 18546, 19828
       192,     47750, 12638, 18552, 16872, 19520, 18493, 19819
       193,     48000, 12242, 18657, 16924, 19881, 18443, 19805
       194,     48250, 11843, 18752, 16987, 20249, 18397, 19786
       195,     48500, 11442, 18836, 17060, 20622, 18356, 19764
       196,     48750, 11043, 18909, 17143, 20998, 18318, 19737
       197,     49000, 10647, 18969, 17235, 21374, 18286, 19707
       198,     49250, 10256, 19017, 17336, 21747, 18259, 19673
       199,     49500,  9875, 19052, 17444, 22116, 18236, 19635
       200,     49750,  9503, 19074, 17560, 22478, 18219, 19594
       201,     50000,  9145, 19083, 17683, 22832, 18207, 19550
       202,     50250,  8802, 19079, 17812, 23174, 18201, 19504
       203,     50500,  8477, 19062, 17946, 23502, 18200, 19455
       204,     50750,  8170, 19031, 18084, 23816, 18205, 19404
       205,     51000,  7885, 18988, 18226, 24112, 18215, 19351
       206,     51250,  7623, 18932, 18370, 24389, 18230, 19296
       207,     51500,  7386, 18864, 18516, 24645, 18251, 19240
       208,     51750,  7175, 18784, 18663, 24879, 18277, 19184
       209,     52000,  6991, 18692, 18809, 25089, 18308, 19127
       210,     52250,  6835, 18590, 18955, 25273, 18344, 19070
       211,     52500,  6709, 18477, 19099, 25432, 18384, 19013
       212,     52750,  6614, 18356, 19240, 25563, 18429, 18956
       213,     53000,  6549, 18225, 19377, 25666, 18478, 18901
       214,     53250,  6516, 18086, 19510, 25741, 18531, 18847
       215,     53500,  6514, 17940, 19638, 25786, 18587, 18794
       216,     53750,  6543, 17788, 19759, 25802, 18646, 18743
       217,     54000,  6604, 17631, 19874, 25788, 18708, 18695
       218,     54250,  6696, 17469, 19981, 25745, 18772, 18649
       219,     54500,  6818, 17305, 20080, 25672, 18839, 18606
       220,     54750,  6970, 17137, 20171, 25571, 18907, 18566
       221,     55000,  7150, 16969, 20252, 25442, 18976, 18529
       222,     55250,  7358, 16800, 20323, 25285, 19046, 18496
       223,     55500,  7593, 16632, 20383, 25102, 19116, 18466
       224,     55750,  7852, 16466, 20434, 24893, 19186, 18441
       225,     56000,  8135, 16303, 20473, 24661, 19255, 18419
       226,     56250,  8439, 16143, 20501, 24406, 19324, 18402
       227,     56500,  8763, 15989, 20517, 24130, 19391, 18389
       228,     56750,  9104, 15840, 20522, 23834, 19456, 18381
       229,     57000,  9461, 15698, 20516, 23522, 19519, 18377
       230,     57250,  9832, 15563, 20498, 23193, 19580, 18377
       231,     57500, 10213, 15437, 20469, 22851, 19637, 18382
       232,     57750, 10604, 15320, 20428, 22498, 19691, 18391
       233,     58000, 11000, 15213, 20377, 22135, 19742, 18405
       234,     58250, 11401, 15116, 20315, 21766, 19788, 18423
       235,     58500, 11803, 15031, 20243, 21392, 19830, 18445
       236,     58750, 12204, 14957, 20161, 21015, 19868, 18471
       237,     59000, 12601, 14895, 20070, 20638, 19901, 18501
       238,     59250, 12993, 14846, 19970, 20263, 19929, 18535
       239,     59500, 13376, 14809, 19862, 19893, 19952, 18572
       240,     59750, 13748, 14786, 19747, 19530, 19970, 18613
       241,     60000, 14107, 14775, 19625, 19175, 19982, 18656
       242,     60250, 14452, 14778, 19497, 18832, 19989, 18703
       243,     60500, 14778, 14794, 19363, 18502, 19990, 18751
       244,     60750, 15086, 14824, 19226, 18188, 19986, 18802
       245,     61000, 15372, 14866, 19085, 17891, 19977, 18855
       246,     61250, 15635, 14920, 18941, 17613, 19962, 18909
       247,     61500, 15873, 14987, 18796, 17356, 19941, 18965
       248,     61750, 16086, 15066, 18650, 17121, 19916, 19021
       249,     62000, 16271, 15157, 18504, 16910, 19885, 19078
       250,     62250, 16427, 15258, 18359, 16724, 19850, 19135
       251,     62500, 16554, 15369, 18216, 16565, 19810, 19191
       252,     62750, 16650, 15490, 18075, 16432, 19766, 19248
       253,     63000, 16716, 15620, 17938, 16328, 19718, 19303
       254,     63250, 16751, 15757, 17806, 16253, 19665, 19357
       255,     63500, 16753, 15902, 17679, 16207, 19610, 19409
       256,     63750, 16725, 16053, 17558, 16190, 19551, 19460
       257,     64000, 16665, 16209, 17444, 16203, 19489, 19508
       258,     64250, 16574, 16370, 17337, 16246, 19425, 19554
       259,     64500, 16453, 16534, 17238, 16317, 19359, 19596
       260,     64750, 16302, 16700, 17149, 16418, 19292, 19636
       261,     65000, 16122, 16868, 17068, 16546, 19223, 19673
       262,     65250, 15914, 17036, 16998, 16702, 19154, 19706
       263,     65500, 15681, 17203, 16937, 16885, 19084, 19735
       264,     65750, 15422, 17368, 16888, 17093, 19014, 19760
       265,     66000, 15140, 17530, 16849, 17324, 18945, 19782
       266,     66250, 14837, 17689, 16822, 17579, 18877, 19799
       267,     66500, 14514, 17843, 16806, 17854, 18810, 19812
       268,     66750, 14173, 17991, 16801, 18149, 18745, 19820
       269,     67000, 13817, 18132, 16808, 18461, 18683, 19824
       270,     67250, 13447, 18266, 16826, 18788, 18623, 19823
       271,     67500, 13066, 18391, 16856, 19130, 18566, 19818
       272,     67750, 12676, 18508, 16897, 19482, 18512, 19809
       273,     68000, 12280, 18614, 16948, 19844, 18462, 19795
       274,     68250, 11880, 18710, 17011, 20213, 18415, 19777
       275,     68500, 11479, 18795, 17083, 20587, 18373, 19754
       276,     68750, 11079, 18868, 17165, 20963, 18336, 19728
       277,     69000, 10682, 18929, 17257, 21339, 18303, 19698
       278,     69250, 10291, 18978, 17357, 21713, 18275, 19664
       279,     69500,  9909, 19013, 17465, 22083, 18253, 19627
       280,     69750,  9537, 19036, 17581, 22446, 18235, 19586
       281,     70000,  9178, 19046, 17704, 22800, 18223, 19542
       282,     70250,  8834, 19042, 17832, 23142, 18217, 19496
       283,     70500,  8508, 19026, 17965, 23472, 18216, 19447
       284,     70750,  8201, 18996, 18103, 23786, 18220, 19396
       285,     71000,  7916, 18953, 18244, 24082, 18230, 19343
       286,     71250,  7653, 18898, 18388, 24360, 18245, 19289
       287,     71500,  7415, 18830, 18534, 24617, 18266, 19233
       288,     71750,  7203, 18751, 18680, 24851, 18291, 19177
       289,     72000,  7019, 18660, 18827, 25061, 18322, 19120
       290,     72250,  6863, 18558, 18972, 25247, 18358, 19063
       291,     72500,  6736, 18447, 19116, 25406, 18398, 19006
       292,     72750,  6640, 18325, 19256, 25537, 18442, 18950
       293,     73000,  6575, 18195, 19394, 25641, 18491, 18894
       294,     73250,  6541, 18057, 19526, 25716, 18543, 18840
       295,     73500,  6539, 17912, 19654, 25762, 18599, 18788
       296,     73750,  6568, 17760, 19775, 25778, 18658, 18737
       297,     74000,  6628, 17604, 19889, 25765, 18720, 18689
       298,     74250,  6719, 17442, 19996, 25722, 18784, 18643
       299,     74500,  6841, 17278, 20095, 25650, 18850, 18600
       300,     74750,  6993, 17111, 20185, 25549, 18918, 18560
       301,     75000,  7173, 16943, 20266, 25420, 18987, 18523
       302,     75250,  7380, 16775, 20336, 25263, 19056, 18490
       303,     75500,  7615, 16608, 20397, 25081, 19126, 18461
       304,     75750,  7873, 16442, 20447, 24873, 19196, 18436
