EMTDC_Simulation,1,1999
6,6A,0D
1,IaA:A1,A,A1,kA,0.258311E-03,-3.38337,0.0,0,32767,1.000000,1,S
2,IbA:A2,A,A2,kA,0.218331E-03,-3.77115,0.0,0,32767,1.000000,1,S
3,IcA:A3,A,A3,kA,0.239878E-03,-4.47577,0.0,0,32767,1.000000,1,S
4,IaB:A4,A,A4,kA,0.259680E-03,-5.10621,0.0,0,32767,1.000000,1,S
5,IbB:A5,A,A5,kA,0.219988E-03,-3.40198,0.0,0,32767,1.000000,1,S
6,IcB:A6,A,A6,kA,0.241184E-03,-3.40354,0.0,0,32767,1.000000,1,S
50
1
4000,10001
03/06/2022,15:08:01.000000
03/06/2022,15:08:01.000000
ASCII
1
         1,         0, 13098, 17273, 18659, 19663, 15464, 14112
         2,       250, 13540, 15644, 19665, 19663, 15464, 14112
         3,       500, 13702, 15403, 19710, 19228, 16370, 13755
         4,       750, 13834, 16706, 18381, 19075, 16663, 13652
         5,      1000, 14053, 16357, 18463, 19126, 15898, 14295
         6,      1250, 13911, 17293, 17765, 19065, 15433, 14784
         7,      1500, 13852, 17945, 17235, 18933, 15688, 14695
         8,      1750, 13948, 17558, 17484, 19009, 14700, 15514
         9,      2000, 13841, 18829, 16441, 18923, 15296, 15063
        10,      2250, 13855, 18552, 16680, 18761, 15677, 14890
        11,      2500, 14103, 17063, 17767, 18762, 15214, 15310
        12,      2750, 14279, 16525, 18067, 18640, 15623, 15069
        13,      3000, 14373, 16445, 18039, 18522, 15698, 15128
        14,      3250, 14459, 16962, 17476, 18534, 15440, 15351
        15,      3500, 14387, 17717, 16866, 18502, 15312, 15502
        16,      3750, 14288, 18109, 16616, 18506, 14992, 15789
        17,      4000, 14240, 18196, 16588, 18574, 14576, 16095
        18,      4250, 14156, 18658, 16259, 18600, 14488, 16148
        19,      4500, 14052, 19094, 15974, 18586, 14643, 16021
        20,      4750, 14057, 18769, 16264, 18616, 14555, 16069
        21,      5000, 14091, 18209, 16738, 18626, 14542, 16070
        22,      5250, 14110, 17952, 16951, 18623, 14591, 16029
        23,      5500, 14118, 17958, 16936, 18683, 14362, 16173
        24,      5750, 14023, 18602, 16453, 18738, 14299, 16171
        25,      6000, 13880, 19075, 16176, 18802, 14095, 16288
        26,      6250, 13761, 19228, 16165, 18920, 13726, 16498
        27,      6500, 13619, 19454, 16112, 19021, 13573, 16528
        28,      6750, 13481, 19710, 16028, 19112, 13502, 16496
        29,      7000, 13373, 19822, 16042, 19208, 13463, 16428
        30,      7250, 13280, 19705, 16248, 19288, 13479, 16327
        31,      7500, 13221, 19368, 16618, 19375, 13429, 16279
        32,      7750, 13165, 19204, 16829, 19474, 13348, 16246
        33,      8000, 13066, 19393, 16763, 19578, 13269, 16206
        34,      8250, 12923, 19764, 16579, 19691, 13180, 16166
        35,      8500, 12771, 19998, 16531, 19819, 13018, 16176
        36,      8750, 12622, 20090, 16607, 19950, 12865, 16175
        37,      9000, 12479, 20163, 16694, 20076, 12793, 16104
        38,      9250, 12350, 20227, 16776, 20196, 12778, 15989
        39,      9500, 12235, 20235, 16892, 20302, 12827, 15830
        40,      9750, 12142, 20066, 17145, 20401, 12867, 15687
        41,     10000, 12072, 19807, 17457, 20503, 12868, 15576
        42,     10250, 11998, 19696, 17638, 20603, 12881, 15457
        43,     10500, 11905, 19782, 17660, 20701, 12890, 15343
        44,     10750, 11796, 19923, 17648, 20802, 12881, 15242
        45,     11000, 11687, 19980, 17714, 20901, 12869, 15147
        46,     11250, 11592, 19925, 17867, 20994, 12866, 15049
        47,     11500, 11513, 19850, 18020, 21079, 12911, 14917
        48,     11750, 11446, 19782, 18154, 21150, 13012, 14748
        49,     12000, 11396, 19658, 18321, 21207, 13139, 14571
        50,     12250, 11367, 19433, 18556, 21256, 13251, 14416
        51,     12500, 11353, 19191, 18791, 21298, 13352, 14278
        52,     12750, 11341, 19044, 18938, 21334, 13456, 14145
        53,     13000, 11323, 19007, 18991, 21364, 13558, 14020
        54,     13250, 11302, 18990, 19029, 21387, 13657, 13904
        55,     13500, 11290, 18903, 19122, 21403, 13754, 13798
        56,     13750, 11294, 18748, 19258, 21410, 13863, 13692
        57,     14000, 11313, 18590, 19381, 21405, 14004, 13569
        58,     14250, 11345, 18436, 19487, 21386, 14173, 13436
        59,     14500, 11392, 18248, 19609, 21355, 14348, 13309
        60,     14750, 11454, 18015, 19754, 21315, 14512, 13202
        61,     15000, 11526, 17789, 19882, 21267, 14664, 13115
        62,     15250, 11600, 17632, 19944, 21213, 14812, 13039
        63,     15500, 11673, 17541, 19949, 21152, 14958, 12971
        64,     15750, 11748, 17454, 19948, 21084, 15097, 12917
        65,     16000, 11830, 17322, 19979, 21010, 15231, 12875
        66,     16250, 11924, 17159, 20026, 20927, 15371, 12836
        67,     16500, 12028, 17003, 20057, 20836, 15525, 12794
        68,     16750, 12139, 16856, 20070, 20737, 15685, 12755
        69,     17000, 12258, 16698, 20086, 20630, 15840, 12728
        70,     17250, 12384, 16525, 20107, 20520, 15979, 12721
        71,     17500, 12513, 16374, 20106, 20406, 16102, 12731
        72,     17750, 12640, 16276, 20059, 20289, 16216, 12752
        73,     18000, 12763, 16219, 19978, 20171, 16323, 12782
        74,     18250, 12885, 16163, 19898, 20051, 16417, 12825
        75,     18500, 13009, 16087, 19834, 19930, 16503, 12878
        76,     18750, 13135, 16002, 19775, 19808, 16585, 12935
        77,     19000, 13263, 15930, 19703, 19684, 16666, 12993
        78,     19250, 13389, 15873, 19619, 19559, 16743, 13057
        79,     19500, 13515, 15817, 19534, 19436, 16807, 13132
        80,     19750, 13638, 15764, 19450, 19316, 16852, 13221
        81,     20000, 13756, 15736, 19349, 19199, 16881, 13320
        82,     20250, 13867, 15746, 19221, 19086, 16898, 13425
        83,     20500, 13968, 15783, 19077, 18979, 16904, 13536
        84,     20750, 14063, 15823, 18940, 18877, 16898, 13652
        85,     21000, 14152, 15853, 18816, 18780, 16880, 13772
        86,     21250, 14236, 15885, 18696, 18689, 16856, 13892
        87,     21500, 14314, 15931, 18570, 18604, 16826, 14011
        88,     21750, 14384, 15990, 18441, 18525, 16787, 14131
        89,     22000, 14446, 16054, 18317, 18454, 16735, 14255
        90,     22250, 14499, 16125, 18195, 18392, 16669, 14382
        91,     22500, 14542, 16214, 18067, 18338, 16591, 14511
        92,     22750, 14573, 16327, 17930, 18294, 16503, 14639
        93,     23000, 14594, 16455, 17792, 18260, 16407, 14764
        94,     23250, 14604, 16581, 17667, 18234, 16303, 14886
        95,     23500, 14605, 16701, 17556, 18218, 16192, 15004
        96,     23750, 14598, 16822, 17453, 18211, 16078, 15116
        97,     24000, 14582, 16950, 17354, 18213, 15961, 15220
        98,     24250, 14556, 17084, 17260, 18224, 15840, 15319
        99,     24500, 14521, 17218, 17176, 18245, 15712, 15413
       100,     24750, 14476, 17355, 17100, 18276, 15577, 15503
       101,     25000, 14422, 17498, 17028, 18316, 15439, 15586
       102,     25250, 14358, 17651, 16958, 18365, 15300, 15660
       103,     25500, 14284, 17805, 16896, 18422, 15161, 15725
       104,     25750, 14203, 17951, 16851, 18488, 15021, 15782
       105,     26000, 14116, 18087, 16821, 18561, 14884, 15828
       106,     26250, 14022, 18218, 16803, 18642, 14750, 15864
       107,     26500, 13923, 18347, 16792, 18729, 14620, 15889
       108,     26750, 13818, 18472, 16792, 18822, 14493, 15904
       109,     27000, 13709, 18590, 16803, 18921, 14370, 15910
       110,     27250, 13594, 18701, 16824, 19025, 14250, 15907
       111,     27500, 13476, 18810, 16852, 19133, 14135, 15895
       112,     27750, 13355, 18915, 16887, 19246, 14028, 15871
       113,     28000, 13231, 19011, 16933, 19361, 13928, 15838
       114,     28250, 13106, 19094, 16993, 19479, 13837, 15795
       115,     28500, 12981, 19162, 17065, 19598, 13755, 15741
       116,     28750, 12857, 19220, 17146, 19718, 13683, 15678
       117,     29000, 12734, 19268, 17234, 19838, 13621, 15605
       118,     29250, 12613, 19307, 17329, 19957, 13569, 15525
       119,     29500, 12495, 19333, 17433, 20075, 13526, 15437
       120,     29750, 12379, 19349, 17542, 20191, 13493, 15343
       121,     30000, 12268, 19356, 17656, 20304, 13470, 15241
       122,     30250, 12161, 19354, 17774, 20413, 13459, 15133
       123,     30500, 12059, 19339, 17897, 20518, 13460, 15020
       124,     30750, 11963, 19309, 18027, 20618, 13472, 14901
       125,     31000, 11875, 19266, 18162, 20713, 13495, 14778
       126,     31250, 11794, 19212, 18299, 20801, 13530, 14651
       127,     31500, 11720, 19148, 18436, 20883, 13576, 14521
       128,     31750, 11655, 19074, 18573, 20957, 13632, 14390
       129,     32000, 11598, 18990, 18711, 21024, 13698, 14258
       130,     32250, 11550, 18897, 18847, 21083, 13773, 14126
       131,     32500, 11511, 18796, 18981, 21133, 13857, 13995
       132,     32750, 11482, 18688, 19111, 21175, 13951, 13865
       133,     33000, 11462, 18571, 19238, 21208, 14053, 13736
       134,     33250, 11452, 18446, 19363, 21231, 14163, 13611
       135,     33500, 11452, 18313, 19484, 21245, 14280, 13489
       136,     33750, 11462, 18175, 19599, 21250, 14404, 13371
       137,     34000, 11482, 18033, 19707, 21245, 14534, 13258
       138,     34250, 11512, 17888, 19807, 21230, 14668, 13152
       139,     34500, 11551, 17739, 19900, 21206, 14805, 13052
       140,     34750, 11599, 17589, 19985, 21173, 14946, 12959
       141,     35000, 11656, 17439, 20060, 21131, 15089, 12874
       142,     35250, 11722, 17289, 20126, 21080, 15234, 12797
       143,     35500, 11796, 17139, 20183, 21020, 15379, 12728
       144,     35750, 11877, 16989, 20231, 20953, 15525, 12669
       145,     36000, 11967, 16842, 20269, 20877, 15669, 12618
       146,     36250, 12063, 16698, 20296, 20795, 15811, 12577
       147,     36500, 12165, 16559, 20313, 20705, 15951, 12547
       148,     36750, 12273, 16426, 20318, 20610, 16086, 12526
       149,     37000, 12385, 16298, 20313, 20508, 16217, 12516
       150,     37250, 12502, 16177, 20298, 20402, 16342, 12516
       151,     37500, 12622, 16064, 20271, 20292, 16461, 12526
       152,     37750, 12745, 15960, 20234, 20178, 16573, 12547
       153,     38000, 12870, 15864, 20187, 20060, 16678, 12577
       154,     38250, 12996, 15776, 20131, 19941, 16775, 12617
       155,     38500, 13122, 15698, 20066, 19820, 16864, 12667
       156,     38750, 13249, 15631, 19991, 19698, 16943, 12726
       157,     39000, 13374, 15575, 19907, 19576, 17012, 12794
       158,     39250, 13497, 15530, 19815, 19455, 17071, 12871
       159,     39500, 13618, 15496, 19716, 19336, 17119, 12955
       160,     39750, 13735, 15474, 19610, 19218, 17156, 13048
       161,     40000, 13848, 15464, 19497, 19104, 17183, 13147
       162,     40250, 13956, 15466, 19379, 18993, 17198, 13252
       163,     40500, 14059, 15479, 19257, 18886, 17202, 13363
       164,     40750, 14156, 15503, 19130, 18785, 17195, 13479
       165,     41000, 14246, 15539, 19001, 18689, 17177, 13599
       166,     41250, 14329, 15586, 18869, 18599, 17148, 13723
       167,     41500, 14404, 15644, 18735, 18515, 17108, 13849
       168,     41750, 14471, 15713, 18600, 18439, 17057, 13977
       169,     42000, 14529, 15792, 18465, 18371, 16995, 14107
       170,     42250, 14579, 15880, 18331, 18311, 16924, 14237
       171,     42500, 14619, 15978, 18199, 18259, 16843, 14366
       172,     42750, 14649, 16084, 18069, 18216, 16754, 14494
       173,     43000, 14670, 16198, 17943, 18182, 16656, 14620
       174,     43250, 14681, 16319, 17822, 18158, 16550, 14743
       175,     43500, 14683, 16446, 17705, 18143, 16437, 14862
       176,     43750, 14674, 16579, 17593, 18137, 16317, 14977
       177,     44000, 14656, 16716, 17488, 18141, 16192, 15087
       178,     44250, 14627, 16858, 17389, 18154, 16062, 15192
       179,     44500, 14590, 17002, 17299, 18177, 15928, 15290
       180,     44750, 14543, 17149, 17216, 18209, 15791, 15381
       181,     45000, 14486, 17296, 17142, 18250, 15651, 15464
       182,     45250, 14422, 17444, 17077, 18300, 15509, 15539
       183,     45500, 14349, 17591, 17022, 18358, 15367, 15606
       184,     45750, 14268, 17737, 16977, 18425, 15226, 15663
       185,     46000, 14180, 17880, 16941, 18499, 15085, 15712
       186,     46250, 14085, 18019, 16916, 18580, 14946, 15750
       187,     46500, 13984, 18155, 16902, 18669, 14810, 15779
       188,     46750, 13877, 18285, 16898, 18763, 14678, 15798
       189,     47000, 13766, 18410, 16905, 18864, 14550, 15807
       190,     47250, 13650, 18528, 16922, 18969, 14428, 15805
       191,     47500, 13531, 18638, 16950, 19078, 14312, 15793
       192,     47750, 13409, 18741, 16988, 19192, 14202, 15771
       193,     48000, 13285, 18834, 17037, 19308, 14100, 15739
       194,     48250, 13159, 18918, 17095, 19427, 14006, 15697
       195,     48500, 13034, 18993, 17162, 19547, 13921, 15646
       196,     48750, 12908, 19057, 17239, 19668, 13845, 15585
       197,     49000, 12784, 19110, 17324, 19789, 13778, 15515
       198,     49250, 12662, 19153, 17417, 19909, 13722, 15437
       199,     49500, 12542, 19184, 17518, 20028, 13676, 15351
       200,     49750, 12425, 19203, 17625, 20144, 13641, 15257
       201,     50000, 12313, 19211, 17739, 20258, 13617, 15157
       202,     50250, 12206, 19208, 17858, 20368, 13604, 15050
       203,     50500, 12103, 19192, 17982, 20474, 13602, 14938
       204,     50750, 12007, 19165, 18110, 20575, 13611, 14821
       205,     51000, 11918, 19127, 18242, 20670, 13632, 14699
       206,     51250, 11836, 19077, 18375, 20759, 13664, 14574
       207,     51500, 11761, 19017, 18510, 20842, 13706, 14446
       208,     51750, 11695, 18946, 18646, 20917, 13759, 14317
       209,     52000, 11637, 18865, 18782, 20985, 13823, 14186
       210,     52250, 11589, 18774, 18917, 21045, 13896, 14055
       211,     52500, 11549, 18675, 19050, 21096, 13979, 13925
       212,     52750, 11519, 18567, 19181, 21138, 14071, 13796
       213,     53000, 11499, 18451, 19308, 21171, 14171, 13669
       214,     53250, 11488, 18328, 19432, 21195, 14278, 13544
       215,     53500, 11488, 18199, 19550, 21210, 14393, 13424
       216,     53750, 11497, 18064, 19662, 21215, 14515, 13308
       217,     54000, 11516, 17925, 19769, 21211, 14642, 13196
       218,     54250, 11545, 17781, 19868, 21197, 14773, 13091
       219,     54500, 11583, 17635, 19960, 21173, 14909, 12992
       220,     54750, 11631, 17487, 20043, 21141, 15049, 12900
       221,     55000, 11687, 17338, 20118, 21099, 15190, 12816
       222,     55250, 11753, 17188, 20184, 21049, 15333, 12740
       223,     55500, 11826, 17039, 20240, 20990, 15477, 12672
       224,     55750, 11908, 16892, 20287, 20923, 15620, 12614
       225,     56000, 11996, 16747, 20323, 20848, 15763, 12564
       226,     56250, 12092, 16606, 20349, 20766, 15903, 12525
       227,     56500, 12193, 16469, 20364, 20677, 16040, 12495
       228,     56750, 12300, 16337, 20369, 20582, 16174, 12475
       229,     57000, 12412, 16211, 20363, 20481, 16303, 12466
       230,     57250, 12529, 16092, 20346, 20376, 16427, 12467
       231,     57500, 12648, 15980, 20319, 20266, 16545, 12478
       232,     57750, 12771, 15877, 20282, 20152, 16656, 12499
       233,     58000, 12895, 15782, 20234, 20035, 16759, 12530
       234,     58250, 13021, 15696, 20177, 19916, 16854, 12572
       235,     58500, 13147, 15620, 20110, 19796, 16941, 12622
       236,     58750, 13272, 15555, 20034, 19675, 17018, 12682
       237,     59000, 13397, 15500, 19950, 19553, 17086, 12751
       238,     59250, 13520, 15456, 19857, 19433, 17144, 12829
       239,     59500, 13640, 15424, 19757, 19313, 17191, 12914
       240,     59750, 13757, 15403, 19651, 19196, 17227, 13007
       241,     60000, 13870, 15394, 19538, 19082, 17252, 13107
       242,     60250, 13977, 15397, 19419, 18972, 17266, 13213
       243,     60500, 14080, 15411, 19296, 18866, 17269, 13325
       244,     60750, 14176, 15437, 19168, 18764, 17261, 13441
       245,     61000, 14266, 15474, 19038, 18669, 17241, 13562
       246,     61250, 14349, 15523, 18905, 18579, 17211, 13686
       247,     61500, 14423, 15582, 18770, 18496, 17169, 13813
       248,     61750, 14490, 15652, 18635, 18420, 17117, 13942
       249,     62000, 14548, 15732, 18499, 18353, 17055, 14073
       250,     62250, 14597, 15822, 18365, 18293, 16983, 14203
       251,     62500, 14637, 15920, 18232, 18241, 16901, 14333
       252,     62750, 14667, 16027, 18102, 18199, 16810, 14461
       253,     63000, 14688, 16142, 17976, 18165, 16711, 14588
       254,     63250, 14699, 16264, 17853, 18141, 16604, 14712
       255,     63500, 14699, 16392, 17735, 18126, 16490, 14832
       256,     63750, 14691, 16526, 17623, 18120, 16370, 14947
       257,     64000, 14672, 16665, 17517, 18125, 16243, 15058
       258,     64250, 14643, 16807, 17418, 18138, 16112, 15163
       259,     64500, 14605, 16952, 17327, 18161, 15977, 15261
       260,     64750, 14558, 17100, 17244, 18193, 15839, 15353
       261,     65000, 14501, 17248, 17170, 18235, 15698, 15437
       262,     65250, 14436, 17397, 17104, 18285, 15556, 15512
       263,     65500, 14363, 17545, 17049, 18344, 15413, 15579
       264,     65750, 14282, 17691, 17003, 18411, 15271, 15638
       265,     66000, 14194, 17835, 16967, 18485, 15129, 15686
       266,     66250, 14098, 17976, 16941, 18567, 14989, 15726
       267,     66500, 13997, 18112, 16926, 18656, 14853, 15755
       268,     66750, 13890, 18243, 16922, 18750, 14720, 15774
       269,     67000, 13778, 18369, 16928, 18851, 14591, 15783
       270,     67250, 13662, 18487, 16945, 18956, 14468, 15782
       271,     67500, 13543, 18598, 16973, 19066, 14351, 15770
       272,     67750, 13421, 18701, 17011, 19180, 14241, 15749
       273,     68000, 13296, 18796, 17059, 19296, 14138, 15717
       274,     68250, 13171, 18881, 17116, 19415, 14043, 15676
       275,     68500, 13045, 18956, 17183, 19535, 13957, 15625
       276,     68750, 12920, 19021, 17260, 19656, 13880, 15564
       277,     69000, 12795, 19075, 17344, 19778, 13813, 15495
       278,     69250, 12673, 19118, 17437, 19898, 13756, 15417
       279,     69500, 12553, 19150, 17538, 20017, 13710, 15331
       280,     69750, 12436, 19170, 17645, 20134, 13674, 15238
       281,     70000, 12323, 19178, 17758, 20248, 13649, 15138
       282,     70250, 12216, 19175, 17877, 20358, 13636, 15032
       283,     70500, 12113, 19161, 18001, 20464, 13634, 14920
       284,     70750, 12017, 19134, 18128, 20565, 13642, 14803
       285,     71000, 11928, 19096, 18259, 20661, 13662, 14682
       286,     71250, 11845, 19047, 18392, 20750, 13694, 14557
       287,     71500, 11771, 18987, 18527, 20833, 13735, 14430
       288,     71750, 11704, 18917, 18663, 20908, 13788, 14300
       289,     72000, 11646, 18837, 18799, 20976, 13851, 14170
       290,     72250, 11597, 18746, 18933, 21036, 13924, 14039
       291,     72500, 11558, 18647, 19066, 21087, 14006, 13909
       292,     72750, 11528, 18540, 19197, 21130, 14097, 13780
       293,     73000, 11507, 18424, 19324, 21163, 14197, 13654
       294,     73250, 11496, 18302, 19446, 21187, 14304, 13530
       295,     73500, 11496, 18173, 19564, 21202, 14418, 13409
       296,     73750, 11505, 18039, 19677, 21207, 14539, 13293
       297,     74000, 11524, 17900, 19783, 21203, 14666, 13182
       298,     74250, 11552, 17757, 19882, 21189, 14797, 13077
       299,     74500, 11591, 17612, 19973, 21166, 14933, 12979
       300,     74750, 11638, 17464, 20057, 21134, 15071, 12887
       301,     75000, 11694, 17315, 20131, 21092, 15213, 12803
       302,     75250, 11760, 17166, 20197, 21042, 15355, 12727
       303,     75500, 11833, 17018, 20253, 20983, 15498, 12660
       304,     75750, 11914, 16871, 20299, 20916, 15641, 12601
