EMTDC_Simulation,1,1999
6,6A,0D
1,IaA:A1,A,A1,kA,0.113915E-03,-2.24095,0.0,0,32767,1.000000,1,S
2,IbA:A2,A,A2,kA,0.327128E-04,-.425187,0.0,0,32767,1.000000,1,S
3,IcA:A3,A,A3,kA,0.344316E-04,-.644038,0.0,0,32767,1.000000,1,S
4,IaB:A4,A,A4,kA,0.112770E-03,-1.47254,0.0,0,32767,1.000000,1,S
5,IbB:A5,A,A5,kA,0.306063E-04,-.590733,0.0,0,32767,1.000000,1,S
6,IcB:A6,A,A6,kA,0.324103E-04,-.479273,0.0,0,32767,1.000000,1,S
50
1
4000,10001
03/06/2022,15:10:25.000000
03/06/2022,15:10:25.000000
ASCII
1
         1,         0, 19672, 12998, 18705, 13058, 19301, 14788
         2,       250, 20673,  2130, 25717, 13058, 19301, 14788
         3,       500, 21042,   520, 26029, 12056, 25799, 12139
         4,       750, 21342,  9226, 16765, 11703, 27908, 11374
         5,      1000, 21837,  6902, 17334, 11821, 22410, 16157
         6,      1250, 21513, 13155, 12465, 11683, 19061, 19799
         7,      1500, 21379, 17500,  8780, 11378, 20889, 19134
         8,      1750, 21597, 14911, 10519, 11553, 13789, 25228
         9,      2000, 21355, 23404,  3250, 11354, 18080, 21869
        10,      2250, 21385, 21549,  4913, 10981, 20825, 20573
        11,      2500, 21949, 11602, 12498, 10984, 17502, 23702
        12,      2750, 22349,  8002, 14595, 10704, 20436, 21907
        13,      3000, 22561,  7466, 14402, 10432, 20974, 22345
        14,      3250, 22755, 10935, 10464, 10459, 19115, 24005
        15,      3500, 22591, 15982,  6211, 10386, 18195, 25129
        16,      3750, 22368, 18590,  4472, 10396, 15896, 27266
        17,      4000, 22259, 19168,  4283, 10553, 12902, 29545
        18,      4250, 22067, 22251,  1991, 10612, 12271, 29938
        19,      4500, 21831, 25168,     0, 10580, 13391, 28991
        20,      4750, 21842, 22999,  2023, 10648, 12766, 29344
        21,      5000, 21920, 19242,  5335, 10672, 12674, 29346
        22,      5250, 21964, 17517,  6827, 10664, 13020, 29047
        23,      5500, 21984, 17558,  6724, 10803, 11376, 30117
        24,      5750, 21767, 21876,  3339, 10929, 10929, 30101
        25,      6000, 21442, 25039,  1409, 11077,  9460, 30973
        26,      6250, 21173, 26052,  1337, 11349,  6801, 32537
        27,      6500, 20851, 27555,   974, 11582,  5701, 32767
        28,      6750, 20537, 29269,   383, 11790,  5192, 32523
        29,      7000, 20292, 30023,   477, 12011,  4922, 32010
        30,      7250, 20083, 29237,  1918, 12196,  5040, 31255
        31,      7500, 19950, 26972,  4507, 12394,  4681, 30904
        32,      7750, 19824, 25864,  5979, 12622,  4099, 30659
        33,      8000, 19599, 27135,  5515, 12862,  3531, 30361
        34,      8250, 19275, 29623,  4225, 13122,  2891, 30060
        35,      8500, 18929, 31187,  3882, 13416,  1725, 30140
        36,      8750, 18591, 31799,  4420, 13718,   620, 30131
        37,      9000, 18267, 32283,  5030, 14008,   106, 29609
        38,      9250, 17974, 32708,  5595, 14284,     0, 28748
        39,      9500, 17714, 32767,  6400, 14529,   355, 27560
        40,      9750, 17504, 31637,  8169, 14756,   646, 26496
        41,     10000, 17347, 29892, 10347, 14992,   648, 25673
        42,     10250, 17179, 29148, 11609, 15220,   742, 24790
        43,     10500, 16967, 29733, 11754, 15447,   808, 23940
        44,     10750, 16721, 30683, 11665, 15679,   745, 23190
        45,     11000, 16473, 31061, 12125, 15906,   657, 22484
        46,     11250, 16258, 30688, 13192, 16121,   635, 21757
        47,     11500, 16078, 30191, 14259, 16316,   957, 20775
        48,     11750, 15927, 29738, 15192, 16478,  1687, 19520
        49,     12000, 15814, 28913, 16349, 16610,  2597, 18202
        50,     12250, 15750, 27407, 17991, 16722,  3405, 17050
        51,     12500, 15719, 25784, 19636, 16820,  4131, 16025
        52,     12750, 15691, 24805, 20659, 16902,  4874, 15035
        53,     13000, 15650, 24566, 21022, 16971,  5609, 14102
        54,     13250, 15603, 24458, 21278, 17025,  6321, 13243
        55,     13500, 15575, 23876, 21924, 17062,  7018, 12456
        56,     13750, 15585, 22840, 22877, 17078,  7793, 11668
        57,     14000, 15627, 21785, 23738, 17065,  8808, 10756
        58,     14250, 15700, 20762, 24471, 17021, 10024,  9760
        59,     14500, 15805, 19504, 25316, 16950, 11283,  8817
        60,     14750, 15946, 17945, 26332, 16858, 12463,  8025
        61,     15000, 16110, 16434, 27225, 16748, 13550,  7378
        62,     15250, 16279, 15389, 27660, 16624, 14612,  6808
        63,     15500, 16443, 14788, 27686, 16483, 15663,  6305
        64,     15750, 16612, 14209, 27677, 16327, 16665,  5903
        65,     16000, 16800, 13329, 27892, 16155, 17627,  5591
        66,     16250, 17013, 12242, 28220, 15966, 18631,  5302
        67,     16500, 17248, 11196, 28436, 15756, 19732,  4992
        68,     16750, 17500, 10221, 28527, 15527, 20887,  4699
        69,     17000, 17770,  9164, 28640, 15283, 21998,  4500
        70,     17250, 18055,  8012, 28790, 15027, 22996,  4446
        71,     17500, 18348,  6999, 28785, 14765, 23881,  4521
        72,     17750, 18636,  6344, 28455, 14498, 24702,  4677
        73,     18000, 18914,  5969, 27890, 14226, 25464,  4905
        74,     18250, 19190,  5604, 27325, 13950, 26144,  5222
        75,     18500, 19470,  5094, 26882, 13671, 26756,  5615
        76,     18750, 19757,  4524, 26475, 13389, 27343,  6040
        77,     19000, 20046,  4045, 25975, 13104, 27932,  6475
        78,     19250, 20333,  3665, 25385, 12818, 28485,  6949
        79,     19500, 20618,  3293, 24797, 12534, 28940,  7507
        80,     19750, 20897,  2939, 24210, 12257, 29265,  8164
        81,     20000, 21165,  2745, 23507, 11989, 29475,  8900
        82,     20250, 21414,  2816, 22614, 11730, 29598,  9684
        83,     20500, 21644,  3068, 21615, 11483, 29639, 10506
        84,     20750, 21858,  3332, 20656, 11247, 29592, 11370
        85,     21000, 22060,  3536, 19793, 11025, 29466, 12264
        86,     21250, 22251,  3749, 18960, 10815, 29289, 13159
        87,     21500, 22427,  4056, 18087, 10619, 29076, 14043
        88,     21750, 22585,  4449, 17189, 10438, 28800, 14932
        89,     22000, 22726,  4874, 16320, 10275, 28428, 15852
        90,     22250, 22846,  5343, 15475, 10132, 27950, 16802
        91,     22500, 22944,  5938, 14587, 10009, 27386, 17761
        92,     22750, 23015,  6696, 13631,  9908, 26755, 18709
        93,     23000, 23061,  7549, 12670,  9828, 26066, 19638
        94,     23250, 23084,  8392, 11794,  9769, 25319, 20547
        95,     23500, 23087,  9191, 11024,  9732, 24525, 21426
        96,     23750, 23071,  9997, 10312,  9716, 23704, 22256
        97,     24000, 23033, 10853,  9621,  9721, 22864, 23033
        98,     24250, 22975, 11746,  8967,  9747, 21992, 23766
        99,     24500, 22895, 12641,  8380,  9795, 21073, 24467
       100,     24750, 22794, 13547,  7853,  9865, 20109, 25134
       101,     25000, 22671, 14506,  7350,  9957, 19118, 25749
       102,     25250, 22525, 15527,  6862, 10070, 18118, 26301
       103,     25500, 22359, 16556,  6435, 10203, 17115, 26787
       104,     25750, 22175, 17529,  6117, 10354, 16114, 27206
       105,     26000, 21977, 18435,  5912, 10523, 15125, 27552
       106,     26250, 21766, 19307,  5785, 10708, 14163, 27817
       107,     26500, 21540, 20166,  5712, 10908, 13231, 28001
       108,     26750, 21303, 20999,  5707, 11122, 12325, 28112
       109,     27000, 21054, 21784,  5784, 11349, 11437, 28159
       110,     27250, 20796, 22528,  5932, 11589, 10576, 28139
       111,     27500, 20528, 23253,  6129, 11839,  9753, 28045
       112,     27750, 20253, 23954,  6374, 12098,  8982, 27872
       113,     28000, 19972, 24598,  6693, 12364,  8267, 27623
       114,     28250, 19689, 25147,  7107, 12635,  7610, 27301
       115,     28500, 19406, 25602,  7610, 12909,  7019, 26904
       116,     28750, 19125, 25986,  8176, 13185,  6501, 26434
       117,     29000, 18846, 26310,  8788, 13460,  6058, 25894
       118,     29250, 18572, 26566,  9452, 13734,  5684, 25293
       119,     29500, 18304, 26743, 10172, 14005,  5376, 24641
       120,     29750, 18043, 26848, 10937, 14272,  5138, 23939
       121,     30000, 17790, 26894, 11730, 14532,  4978, 23186
       122,     30250, 17547, 26877, 12549, 14783,  4900, 22383
       123,     30500, 17316, 26777, 13407, 15025,  4904, 21538
       124,     30750, 17100, 26580, 14311, 15256,  4989, 20655
       125,     31000, 16899, 26290, 15250, 15473,  5157, 19739
       126,     31250, 16715, 25928, 16202, 15677,  5408, 18795
       127,     31500, 16549, 25502, 17157, 15864,  5738, 17830
       128,     31750, 16401, 25009, 18114, 16036,  6142, 16854
       129,     32000, 16273, 24447, 19073, 16189,  6613, 15873
       130,     32250, 16164, 23826, 20022, 16325,  7152, 14894
       131,     32500, 16076, 23155, 20951, 16441,  7759, 13917
       132,     32750, 16009, 22435, 21857, 16537,  8431, 12948
       133,     33000, 15964, 21658, 22744, 16612,  9165, 11994
       134,     33250, 15942, 20820, 23615, 16666,  9955, 11061
       135,     33500, 15942, 19933, 24456, 16698, 10797, 10154
       136,     33750, 15965, 19012, 25255, 16708, 11687,  9279
       137,     34000, 16010, 18066, 26004, 16696, 12618,  8441
       138,     34250, 16077, 17096, 26704, 16662, 13581,  7648
       139,     34500, 16166, 16106, 27351, 16607, 14570,  6906
       140,     34750, 16275, 15106, 27940, 16531, 15580,  6217
       141,     35000, 16405, 14104, 28463, 16434, 16608,  5584
       142,     35250, 16554, 13104, 28921, 16317, 17647,  5010
       143,     35500, 16721, 12103, 29317, 16180, 18692,  4500
       144,     35750, 16907, 11106, 29651, 16024, 19736,  4056
       145,     36000, 17109, 10121, 29917, 15851, 20771,  3682
       146,     36250, 17327,  9163, 30107, 15661, 21794,  3378
       147,     36500, 17559,  8236, 30221, 15455, 22795,  3149
       148,     36750, 17803,  7346, 30259, 15235, 23768,  2996
       149,     37000, 18058,  6494, 30224, 15002, 24706,  2920
       150,     37250, 18322,  5690, 30114, 14758, 25605,  2921
       151,     37500, 18594,  4938, 29928, 14503, 26460,  2998
       152,     37750, 18873,  4241, 29670, 14241, 27268,  3150
       153,     38000, 19155,  3599, 29344, 13971, 28022,  3376
       154,     38250, 19441,  3015, 28954, 13696, 28717,  3675
       155,     38500, 19728,  2495, 28498, 13418, 29351,  4046
       156,     38750, 20014,  2047, 27977, 13137, 29918,  4485
       157,     39000, 20298,  1673, 27395, 12857, 30415,  4991
       158,     39250, 20577,  1373, 26755, 12579, 30838,  5561
       159,     39500, 20850,  1149, 26065, 12303, 31184,  6191
       160,     39750, 21116,  1003, 25325, 12033, 31453,  6877
       161,     40000, 21372,   936, 24541, 11770, 31643,  7614
       162,     40250, 21617,   948, 23719, 11515, 31754,  8397
       163,     40500, 21850,  1034, 22865, 11269, 31784,  9222
       164,     40750, 22069,  1196, 21986, 11036, 31733, 10084
       165,     41000, 22274,  1434, 21084, 10814, 31602, 10977
       166,     41250, 22462,  1749, 20164, 10608, 31391, 11896
       167,     41500, 22632,  2137, 19231, 10416, 31102, 12836
       168,     41750, 22784,  2597, 18292, 10241, 30736, 13790
       169,     42000, 22916,  3123, 17355, 10084, 30295, 14753
       170,     42250, 23028,  3715, 16423,  9946, 29783, 15718
       171,     42500, 23118,  4368, 15503,  9827, 29203, 16680
       172,     42750, 23188,  5076, 14600,  9728, 28559, 17632
       173,     43000, 23235,  5835, 13723,  9650, 27854, 18568
       174,     43250, 23260,  6640, 12875,  9593, 27094, 19483
       175,     43500, 23263,  7487, 12061,  9558, 26283, 20371
       176,     43750, 23243,  8372, 11284,  9545, 25425, 21226
       177,     44000, 23201,  9290, 10552,  9554, 24527, 22045
       178,     44250, 23137, 10233,  9867,  9585, 23592, 22820
       179,     44500, 23051, 11196,  9236,  9637, 22628, 23548
       180,     44750, 22945, 12174,  8661,  9711, 21641, 24224
       181,     45000, 22817, 13159,  8145,  9805, 20636, 24844
       182,     45250, 22671, 14145,  7694,  9920, 19621, 25403
       183,     45500, 22505, 15126,  7310, 10055, 18601, 25898
       184,     45750, 22322, 16096,  6994, 10208, 17583, 26327
       185,     46000, 22122, 17049,  6749, 10379, 16573, 26686
       186,     46250, 21907, 17981,  6576, 10567, 15577, 26973
       187,     46500, 21678, 18885,  6475, 10770, 14601, 27187
       188,     46750, 21436, 19755,  6448, 10988, 13651, 27327
       189,     47000, 21184, 20585,  6496, 11218, 12734, 27391
       190,     47250, 20921, 21371,  6617, 11460, 11855, 27378
       191,     47500, 20651, 22108,  6811, 11713, 11019, 27290
       192,     47750, 20375, 22790,  7077, 11973, 10232, 27125
       193,     48000, 20094, 23414,  7414, 12241,  9499, 26887
       194,     48250, 19810, 23975,  7820, 12514,  8825, 26575
       195,     48500, 19525, 24470,  8291, 12790,  8212, 26191
       196,     48750, 19241, 24898,  8824, 13068,  7666, 25739
       197,     49000, 18960, 25254,  9417, 13346,  7189, 25221
       198,     49250, 18682, 25537, 10066, 13623,  6785, 24640
       199,     49500, 18411, 25744, 10767, 13897,  6456, 24000
       200,     49750, 18147, 25875, 11515, 14165,  6204, 23304
       201,     50000, 17893, 25928, 12307, 14427,  6031, 22557
       202,     50250, 17649, 25903, 13137, 14680,  5938, 21763
       203,     50500, 17418, 25800, 14001, 14923,  5925, 20928
       204,     50750, 17200, 25619, 14892, 15156,  5994, 20055
       205,     51000, 16997, 25363, 15806, 15375,  6142, 19152
       206,     51250, 16811, 25032, 16736, 15580,  6369, 18223
       207,     51500, 16643, 24629, 17677, 15770,  6675, 17274
       208,     51750, 16493, 24155, 18623, 15943,  7057, 16311
       209,     52000, 16362, 23615, 19569, 16099,  7512, 15339
       210,     52250, 16251, 23010, 20509, 16236,  8039, 14365
       211,     52500, 16162, 22346, 21436, 16354,  8633, 13395
       212,     52750, 16094, 21624, 22346, 16451,  9292, 12434
       213,     53000, 16048, 20852, 23232, 16527, 10010, 11489
       214,     53250, 16025, 20032, 24090, 16583, 10785, 10566
       215,     53500, 16023, 19170, 24913, 16616, 11610,  9669
       216,     53750, 16044, 18272, 25696, 16628, 12482,  8805
       217,     54000, 16088, 17342, 26436, 16618, 13394,  7979
       218,     54250, 16153, 16387, 27127, 16586, 14341,  7196
       219,     54500, 16240, 15413, 27766, 16532, 15317,  6461
       220,     54750, 16348, 14424, 28347, 16457, 16317,  5778
       221,     55000, 16476, 13429, 28869, 16362, 17333,  5151
       222,     55250, 16624, 12431, 29327, 16245, 18361,  4585
       223,     55500, 16791, 11439, 29718, 16110, 19393,  4082
       224,     55750, 16975, 10457, 30041, 15955, 20423,  3647
       225,     56000, 17176,  9492, 30293, 15783, 21445,  3281
       226,     56250, 17392,  8550, 30473, 15594, 22452,  2986
       227,     56500, 17623,  7636, 30579, 15390, 23439,  2766
       228,     56750, 17865,  6757, 30612, 15171, 24399,  2620
       229,     57000, 18119,  5917, 30570, 14940, 25327,  2550
       230,     57250, 18382,  5122, 30454, 14696, 26216,  2557
       231,     57500, 18654,  4376, 30266, 14443, 27062,  2639
       232,     57750, 18931,  3684, 30005, 14181, 27858,  2797
       233,     58000, 19213,  3051, 29674, 13913, 28601,  3030
       234,     58250, 19498,  2480, 29274, 13639, 29286,  3336
       235,     58500, 19783,  1975, 28809, 13362, 29908,  3714
       236,     58750, 20068,  1539, 28281, 13083, 30463,  4160
       237,     59000, 20351,  1174, 27693, 12804, 30949,  4673
       238,     59250, 20629,   884, 27049, 12526, 31362,  5249
       239,     59500, 20901,   668, 26352, 12252, 31700,  5884
       240,     59750, 21166,   530, 25608, 11983, 31960,  6575
       241,     60000, 21421,   469, 24821, 11720, 32142,  7317
       242,     60250, 21666,   487, 23996, 11466, 32243,  8106
       243,     60500, 21898,   582, 23137, 11221, 32264,  8936
       244,     60750, 22116,   755, 22251, 10988, 32204,  9804
       245,     61000, 22320,  1003, 21341, 10768, 32063, 10703
       246,     61250, 22506,  1327, 20415, 10562, 31843, 11627
       247,     61500, 22676,  1724, 19478, 10372, 31545, 12572
       248,     61750, 22827,  2190, 18536, 10198, 31171, 13531
       249,     62000, 22958,  2724, 17594, 10041, 30723, 14498
       250,     62250, 23069,  3322, 16659,  9904, 30203, 15467
       251,     62500, 23159,  3980, 15735,  9785, 29616, 16433
       252,     62750, 23228,  4695, 14829,  9687, 28964, 17390
       253,     63000, 23274,  5461, 13947,  9610, 28252, 18331
       254,     63250, 23299,  6275, 13093,  9554, 27484, 19250
       255,     63500, 23301,  7130, 12274,  9520, 26665, 20143
       256,     63750, 23280,  8023, 11494,  9508, 25800, 21003
       257,     64000, 23238,  8947, 10757,  9517, 24894, 21826
       258,     64250, 23173,  9896, 10070,  9549, 23953, 22605
       259,     64500, 23087, 10865,  9435,  9602, 22983, 23337
       260,     64750, 22979, 11848,  8856,  9676, 21990, 24016
       261,     65000, 22851, 12838,  8338,  9771, 20979, 24640
       262,     65250, 22704, 13830,  7883,  9887, 19957, 25202
       263,     65500, 22538, 14817,  7495, 10022, 18931, 25702
       264,     65750, 22354, 15794,  7175, 10175, 17906, 26134
       265,     66000, 22154, 16754,  6926, 10347, 16890, 26497
       266,     66250, 21938, 17691,  6749, 10535, 15888, 26788
       267,     66500, 21708, 18600,  6646, 10739, 14906, 27006
       268,     66750, 21466, 19475,  6616, 10958, 13951, 27148
       269,     67000, 21213, 20310,  6661, 11189, 13028, 27215
       270,     67250, 20950, 21101,  6779, 11431, 12144, 27206
       271,     67500, 20679, 21842,  6971, 11684, 11303, 27121
       272,     67750, 20402, 22529,  7234, 11945, 10511, 26960
       273,     68000, 20121, 23158,  7568, 12214,  9772, 26724
       274,     68250, 19837, 23724,  7970, 12487,  9092, 26415
       275,     68500, 19551, 24225,  8438, 12764,  8475, 26035
       276,     68750, 19267, 24657,  8968, 13042,  7924, 25586
       277,     69000, 18985, 25018,  9559, 13321,  7442, 25071
       278,     69250, 18707, 25305, 10205, 13598,  7033, 24492
       279,     69500, 18435, 25516, 10904, 13872,  6700, 23855
       280,     69750, 18171, 25651, 11650, 14141,  6443, 23161
       281,     70000, 17916, 25708, 12439, 14403,  6266, 22417
       282,     70250, 17672, 25687, 13267, 14657,  6169, 21626
       283,     70500, 17440, 25588, 14128, 14901,  6152, 20793
       284,     70750, 17222, 25412, 15017, 15133,  6216, 19923
       285,     71000, 17019, 25159, 15928, 15353,  6360, 19022
       286,     71250, 16833, 24832, 16856, 15559,  6583, 18095
       287,     71500, 16663, 24432, 17795, 15749,  6885, 17149
       288,     71750, 16513, 23963, 18739, 15923,  7263, 16188
       289,     72000, 16382, 23426, 19683, 16079,  7714, 15218
       290,     72250, 16271, 22824, 20620, 16216,  8237, 14247
       291,     72500, 16181, 22163, 21546, 16334,  8828, 13279
       292,     72750, 16113, 21445, 22453, 16432,  9483, 12320
       293,     73000, 16067, 20676, 23337, 16509, 10198, 11378
       294,     73250, 16043, 19860, 24193, 16564, 10969, 10456
       295,     73500, 16041, 19001, 25014, 16598, 11791,  9562
       296,     73750, 16062, 18106, 25796, 16610, 12659,  8700
       297,     74000, 16105, 17179, 26534, 16600, 13568,  7876
       298,     74250, 16170, 16227, 27223, 16569, 14512,  7094
       299,     74500, 16256, 15256, 27860, 16515, 15485,  6361
       300,     74750, 16364, 14270, 28440, 16441, 16481,  5680
       301,     75000, 16492, 13277, 28959, 16345, 17495,  5055
       302,     75250, 16640, 12283, 29416, 16230, 18519,  4490
       303,     75500, 16806, 11293, 29805, 16094, 19548,  3990
       304,     75750, 16990, 10314, 30127, 15940, 20575,  3556
